# Hz S RI R 50
100000 0.9964207929228475 -0.024102020090624288
119700 0.997035619391987 -0.02858407410644451
139500 0.9971414231784882 -0.033454431954738476
159300 0.9972211475043968 -0.037974924657774065
179100 0.9967097308033313 -0.04257337101280663
198800 0.996663784767615 -0.04725816084141673
218600 0.9962019156445977 -0.05199433293796206
238400 0.9962797934313501 -0.05661927792529828
258200 0.9956735144185643 -0.06131175764896613
277900 0.9954010468779226 -0.06573396469861184
297700 0.995286896121314 -0.07032840835179945
317500 0.9948346786348937 -0.07525398812627193
337300 0.9944010081835951 -0.07987674184164889
357000 0.9939751388624988 -0.08466909262472011
376800 0.9935531194623264 -0.08941016662240038
396600 0.9931061317496375 -0.09392067885202701
416400 0.9924529406561083 -0.09842273107920843
436100 0.9921896327790956 -0.1032151696736974
455900 0.9916715887989074 -0.10768779558367607
475700 0.9909722035057372 -0.11247053845155885
495500 0.9906972773430154 -0.11701645662102966
515200 0.9899821682049319 -0.12172179563514685
535000 0.9894629587656103 -0.1262635933535693
554800 0.9891381967438005 -0.13096635183014116
574600 0.9881762619467687 -0.13550065117945273
594300 0.9875010501309236 -0.14034781722017034
614100 0.9867469851926386 -0.14478188300634576
633900 0.9862622048594869 -0.14962630714597333
653700 0.9855326986168405 -0.1542418591600453
673400 0.9847485037047655 -0.1588241974990673
693200 0.9839419661838077 -0.16321045890550467
713000 0.9832414961495115 -0.16805763787817557
732800 0.9822155933532418 -0.17245065908046278
752500 0.9815498273490662 -0.17706165123304596
772300 0.9807337515862457 -0.18153309764089096
792100 0.980024041299129 -0.18659853559299466
811900 0.9789576648602217 -0.19083913685153567
831600 0.9781003371860727 -0.19535814901737242
851400 0.9772775273576347 -0.19994942501075186
871200 0.9757764746382934 -0.20453191935573303
891000 0.9749510029038128 -0.20920407698895943
910700 0.9741276445426129 -0.21407376990880167
930500 0.9732627165630425 -0.21835038203104362
950300 0.9722171763859021 -0.22289333299931738
970100 0.970930407074158 -0.22745562316262066
989800 0.9697922071206927 -0.2319791770285861
1009600 0.9687567202822894 -0.23657167257423845
1029400 0.9675470789515572 -0.24111071197077505
1049200 0.9664940158061593 -0.24539337546389173
1068900 0.9653123729034288 -0.2502701844655611
1088700 0.9639317649178711 -0.2546825002207391
1108500 0.963062167774947 -0.2589842278479075
1128300 0.9616311348670297 -0.2636372697104017
1148000 0.9601948067792998 -0.2680491302666671
1167800 0.9589770265561732 -0.27270136973173376
1187600 0.9575628207282884 -0.27713924803498896
1207400 0.9562212668877815 -0.2816431730468698
1227100 0.9549005776567513 -0.2860167001197019
1246900 0.953690727933964 -0.29034437622528037
1266700 0.9522247099722846 -0.2949569933882872
1286500 0.9508311237123844 -0.29949225523929224
1306200 0.9494315237020372 -0.30364993552838737
1326000 0.9484701634332624 -0.30803027613806905
1345800 0.9463132290319729 -0.31312431634219207
1365600 0.9448036550413412 -0.3172863109928472
1385300 0.9436531872214771 -0.3218440751435056
1405100 0.9420117714500259 -0.32598054983991603
1424900 0.9403488565744669 -0.33037498941895005
1444700 0.9389566975259191 -0.33491968312188436
1464400 0.9373326531828372 -0.33921391889017194
1484200 0.9358133401861735 -0.3436797794901419
1504000 0.9340177510206062 -0.3478022325427987
1523800 0.9321921065606199 -0.35221307964929977
1543500 0.9307898436623008 -0.3568249657910787
1563300 0.9290175056229196 -0.36133873982902115
1583100 0.9274745046560899 -0.36553268520522375
1602900 0.9252770938069607 -0.3699088887352557
1622600 0.923613499822663 -0.37438486909534974
1642400 0.9217549825751805 -0.37845414789969173
1662200 0.9201630532161998 -0.3827856895612335
1682000 0.9181547018303737 -0.38687715527066474
1701700 0.9166699637157615 -0.39154267433791856
1721500 0.9143166281936267 -0.3955792421726847
1741300 0.9126724031832453 -0.39996525352478873
1761100 0.91068918389996 -0.4045324578027518
1780800 0.9089172038881902 -0.40831196230861205
1800600 0.9071822669792624 -0.41298452757878057
1820400 0.904763224902766 -0.41687943509429615
1840200 0.902735506419375 -0.42116742873006124
1859900 0.9007990132278088 -0.42566126783224967
1879700 0.8989286136078126 -0.4297229465603911
1899500 0.8967734206012632 -0.4339971463287348
1919300 0.8946823249472955 -0.4381149660300867
1939000 0.892536410215757 -0.44223344916119106
1958800 0.8905750298185885 -0.4466078032043514
1978600 0.8886495330968793 -0.4509033171044339
1998400 0.8861327339337749 -0.4549624405000169
2018100 0.8840216285125524 -0.4588725209719625
2037900 0.8817414412552942 -0.46293778022077214
2057700 0.8796639923871182 -0.4673081490052356
2077500 0.8774139210082592 -0.47146091913448024
2097275 0.875255069076421 -0.4756165592771665
2116975 0.8727991242350218 -0.4795490626332061
2136775 0.870292530828796 -0.4835810176758836
2156575 0.8682104475166782 -0.4877452095670732
2176375 0.8659462337897931 -0.49172565122205364
2196075 0.8635412419469561 -0.496113723800899
2215875 0.8613673931504173 -0.4998099628355898
2235675 0.8589194588676333 -0.5039164813791527
2255475 0.8565268326709377 -0.5079168660030644
2275175 0.8539654707894867 -0.5119004232442121
2294975 0.8514500333712993 -0.515914597433332
2314775 0.8488132412803578 -0.5197985649429514
2334575 0.8467666943558418 -0.5238702220427262
2354275 0.8438668178954208 -0.5281076410820734
2374075 0.8413084641278378 -0.5317467556321367
2393875 0.83892264525258 -0.5358251405583334
2413675 0.8364541157048313 -0.5395378398171078
2433375 0.833784021658612 -0.5436734699443068
2453175 0.8311743098321254 -0.5475157106426114
2472975 0.828600844177669 -0.5515545706812423
2492775 0.8261064872704026 -0.5552562143835845
2512475 0.8231634863829403 -0.5594678418335541
2532275 0.8204947900967499 -0.5627534251187222
2552075 0.8177766487996191 -0.5671144023932864
2571875 0.815197859128806 -0.5706464129588048
2591575 0.8123224702927377 -0.5746580045937635
2611375 0.8095758873698629 -0.5782190581803591
2631175 0.807056799575533 -0.58185741151642
2650975 0.8039245630132568 -0.5856151724177537
2670675 0.8014504281085019 -0.5896549895986317
2690475 0.798096151262724 -0.5935580972393498
2710275 0.7956167948901571 -0.5970798224323994
2730075 0.7923885251231724 -0.6009984380295177
2749775 0.7898491582073619 -0.6040335019005861
2769575 0.7870869914100415 -0.6084279981181214
2789375 0.7839364329291969 -0.6117614496739953
2809175 0.7810398732889995 -0.6154075578008017
2828875 0.7782691288602449 -0.6190648673039174
2848675 0.7751258787677289 -0.6229586011293156
2868475 0.7722543231659832 -0.626606260710804
2888275 0.7694004667942833 -0.6301150974772077
2907975 0.7660744234524342 -0.6337166647329072
2927775 0.7629351132058354 -0.6371281640814911
2947575 0.7601073425015599 -0.6410388751941318
2967375 0.7571265469904878 -0.6445271750136519
2987075 0.7538955449581187 -0.6480301883390662
3006875 0.750662131996781 -0.6515088688134009
3026675 0.7477238414535894 -0.6549661116183917
3046475 0.7444246698379672 -0.6586798005395578
3066175 0.741266799688242 -0.6618262908421596
3085975 0.7380227689161598 -0.6653384178756157
3105775 0.7348460870605645 -0.6689439792048603
3125575 0.7318557231634798 -0.6722685523231551
3145275 0.7285464588397164 -0.6756439757222735
3165075 0.7257049191765814 -0.6792211116975688
3184875 0.721979705929402 -0.6826954917692034
3204675 0.7184438041137609 -0.6860649117654978
3224375 0.7154723560097546 -0.6891947043229736
3244175 0.7122400346081837 -0.6923214553434979
3263975 0.7089946143355679 -0.6963053939662862
3283775 0.7053696167336397 -0.6992068439034368
3303475 0.702152646225516 -0.7025370722238307
3323275 0.6988494978262267 -0.7057976195362664
3343075 0.6954697575725939 -0.7092590640548506
3362875 0.6917428936254059 -0.7125713640198206
3382575 0.6882970355877788 -0.7156939856212262
3402375 0.6851020065975738 -0.7188210188839067
3422175 0.6817600924446459 -0.7220888403184563
3441975 0.67830372848192 -0.7253599772316089
3461675 0.6747566832065726 -0.7280410107802735
3481475 0.671245370899135 -0.7312137983699846
3501275 0.6677316274727191 -0.7347482023933041
3521075 0.6639079035817429 -0.7378129482593466
3540775 0.660574734232296 -0.7408718418063973
3560575 0.6569225635706052 -0.7441070134260018
3580375 0.6534386948196935 -0.7472511958247348
3600175 0.6497317596367426 -0.7502261873346036
3619875 0.6462826132755506 -0.7526636361836934
3639675 0.6425490792129392 -0.7561023359476465
3659475 0.6391329069938423 -0.7589065623692485
3679275 0.6352807226480934 -0.7620943131563332
3698975 0.6319141235610886 -0.76521030319718
3718775 0.6277558909478199 -0.7682373051137688
3738575 0.6244290136389964 -0.7711489111447185
3758375 0.6203877236838768 -0.773668453841611
3778075 0.6169123115321631 -0.7767532694314842
3797875 0.6133744688463183 -0.7796391559055518
3817675 0.6096198745935106 -0.7825276456929396
3837475 0.6053981560163919 -0.7852801387245626
3857175 0.6019037407466523 -0.7882707620655198
3876975 0.5980072512527617 -0.7910633126478418
3896775 0.594041572925777 -0.7939112753293837
3916575 0.5904207962110645 -0.7963254960388594
3936275 0.5869805040908269 -0.7989743876230371
3956075 0.582671176946019 -0.8021952311543441
3975875 0.5790745227091192 -0.8046030487348217
3995675 0.574991674207217 -0.8071878989458993
4015375 0.5710135300720038 -0.8102638737700811
4035175 0.5671310367008929 -0.812907717529801
4054975 0.5631787948258792 -0.8154649176453449
4074775 0.5593718487458622 -0.8181179085239381
4094550 0.5553196450500161 -0.8206125718365129
4114250 0.5516352083227618 -0.8232201238935707
4134050 0.5472973379964958 -0.8255992587613971
4153850 0.5436013232592071 -0.8281329096761839
4173650 0.5395803887885668 -0.8308009068036545
4193350 0.5357119367896496 -0.8329956886789373
4213150 0.5313020880814758 -0.8358584072806816
4232950 0.5273844237923015 -0.838034109206683
4252750 0.5235690915117109 -0.8405990431891974
4272450 0.5194520862594395 -0.842906452201813
4292250 0.5152796378179892 -0.8455502342250698
4312050 0.5112661698264821 -0.8478367460302889
4331850 0.507037066384669 -0.8502668570522935
4351550 0.5030995715450042 -0.8525173552638535
4371350 0.4989756954282541 -0.8551533749683583
4391150 0.4948012540789989 -0.8569024168965405
4410950 0.49042896287496 -0.859434471882016
4430650 0.4864222805665155 -0.8615062607356232
4450450 0.4824258212190002 -0.8642401874450232
4470250 0.4780301341769073 -0.8660640087280139
4490050 0.4739860936099465 -0.8686776844538214
4509750 0.46970595630061024 -0.8706488275027933
4529550 0.4654830195611451 -0.8729102126693656
4549350 0.46150286247372346 -0.8750081051550808
4569150 0.45756006116502096 -0.8769857731840487
4588850 0.45250419889720356 -0.8792085302335957
4608650 0.44878190965804055 -0.8810311439325317
4628450 0.4445250170653911 -0.883676523767154
4648250 0.4402176350844495 -0.885658019817459
4667950 0.43578109182726305 -0.8873114288158372
4687750 0.4316603831220088 -0.8895487153877853
4707550 0.4273682291503303 -0.8922715362314464
4727350 0.4228594178191425 -0.8937928130770096
4747050 0.4185336711889858 -0.8953682382966033
4766850 0.41444821355503514 -0.8974496214274184
4786650 0.4100543375114472 -0.8991486567013903
4806450 0.4053766935090371 -0.9009019653286152
4826150 0.40147571474467836 -0.9029161783463315
4845950 0.3966370805442953 -0.9046403626601653
4865750 0.3922973458770339 -0.9063644819120412
4885550 0.3882178456027153 -0.9081297247059306
4905250 0.383614305620733 -0.9103878960242321
4925050 0.3791429508957877 -0.911630204529661
4944850 0.37473525895920995 -0.9135623043475846
4964650 0.3700006567680753 -0.9152005835476975
4984350 0.3659452327728754 -0.9169147469335021
5004150 0.36147842850663775 -0.9187538962628943
5023950 0.3565825306489227 -0.9202626842376223
5043750 0.35277545729222076 -0.9220462268295989
5063450 0.348142364094752 -0.9237821704838869
5083250 0.3436830703585423 -0.9243933564249704
5103050 0.33933210388451746 -0.9263323798520801
5122850 0.33449193902347535 -0.9278156867994877
5142550 0.32984696004268127 -0.9293683943328814
5162350 0.325128527211332 -0.9308364011655783
5182150 0.3208585148186158 -0.9320074090895438
5201950 0.3165843075321743 -0.9336052417297376
5221650 0.31189774969742257 -0.9352324063589963
5241450 0.3074890206958892 -0.9364388812924945
5261250 0.302900908717302 -0.9376407906507948
5281050 0.2982166617642396 -0.9389788329674649
5300750 0.29372191024269234 -0.9405306576281836
5320550 0.2894873282047467 -0.9418365534601428
5340350 0.2849878415348041 -0.9428852021294577
5360150 0.2804120390532294 -0.9439478086333141
5379850 0.2758628988307998 -0.9455641960032498
5399650 0.27151214593681133 -0.9469294258686894
5419450 0.26691228160013253 -0.948036658059238
5439250 0.2623911580022267 -0.9493639960468445
5458950 0.25784369360784154 -0.9505669903557197
5478750 0.25294758927810823 -0.951509890475692
5498550 0.24826603931979793 -0.9525390658738999
5518350 0.24373448231376216 -0.954126669668303
5538050 0.23898487213202346 -0.9551541170663684
5557850 0.23445604013762106 -0.9564267032727664
5577650 0.22981513159081499 -0.9567836216349943
5597450 0.22514615178577463 -0.9579465131588342
5617150 0.22037661873258335 -0.9594889835449455
5636950 0.21610654777547803 -0.9601306684310602
5656750 0.21132417560847985 -0.9610618541891953
5676550 0.20630084761891257 -0.9623468844012721
5696250 0.20183310678964433 -0.9633440258011542
5716050 0.19764422255757394 -0.9636794879354416
5735850 0.19258742826521297 -0.9648153950210202
5755650 0.18775105217763152 -0.9654941990569342
5775350 0.18317930043048947 -0.9658326049843793
5795150 0.1785342743389533 -0.9672994329543783
5814950 0.17390475507621025 -0.967894841516617
5834750 0.1689473997359906 -0.9689432257031859
5854450 0.16427666662470808 -0.9696232716929956
5874250 0.159672091946255 -0.9702018680166401
5894050 0.15480385949696138 -0.9708103488359595
5913850 0.15000266857216865 -0.9716693668865372
5933550 0.14535193886951508 -0.9720886238885272
5953350 0.14067547792526858 -0.9725471900846795
5973150 0.13629220721890753 -0.9731588407544418
5992950 0.13093726447735585 -0.9739164847334709
6012650 0.12684095356538946 -0.9740416882467459
6032450 0.12140240238009174 -0.9745873859554772
6052250 0.11695337918217642 -0.975364589050107
6072050 0.1123088317448396 -0.9757532052734568
6091825 0.10727414448293232 -0.9762485638944219
6111525 0.1030116569596173 -0.9771721515238021
6131325 0.09853152672832986 -0.9773446934164972
6151125 0.09322113654636785 -0.9773730877217945
6170925 0.08843556393860193 -0.9778270647652282
6190625 0.08352278618790586 -0.978162772957833
6210425 0.07903603598695001 -0.978574805128761
6230225 0.07379675663663557 -0.9787491440970619
6250025 0.0689726644858907 -0.9797285964752871
6269725 0.06420082579825383 -0.9792077548747955
6289525 0.05984057245091627 -0.9800331334365073
6309325 0.054586446518944946 -0.9799538869794311
6329125 0.04971689685185043 -0.9797379699625048
6348825 0.04499021740486096 -0.9796792318494806
6368625 0.038942639853025464 -0.9801307537544018
6388425 0.033932290178540395 -0.9806106643971924
6408225 0.029476986063065855 -0.9801617784911589
6427925 0.024373845798833376 -0.9796646665366641
6447725 0.01960485607836702 -0.9796709520116256
6467525 0.014621249306361314 -0.9797697518984263
6487325 0.009873923860407514 -0.9797461300293995
6507025 0.005033572547949771 -0.9792925175003683
6526825 0.0007617565296106438 -0.9791314953000957
6546625 -0.004439052311193051 -0.9792220697337363
6566425 -0.008860662368469604 -0.9788542560334899
6586125 -0.01351231690366391 -0.9787593619410735
6605925 -0.01844373751577814 -0.9782445926095826
6625725 -0.023521017622889235 -0.9789714691541603
6645525 -0.027979646048930617 -0.9781958040307579
6665225 -0.03277476408094204 -0.9785698855292835
6685025 -0.03758471972257808 -0.9775674373066694
6704825 -0.0420314427736522 -0.9773001314125297
6724625 -0.047275008479245685 -0.9772806344571048
6744325 -0.05176794855259592 -0.9763825792721785
6764125 -0.05654731103072968 -0.9764789100277377
6783925 -0.061532621268940324 -0.9759507205718625
6803725 -0.06626964737331321 -0.9756645932502905
6823425 -0.07037708007676749 -0.9750064747717715
6843225 -0.07619067816210008 -0.9740205531837455
6863025 -0.08096163579682428 -0.9741227899518466
6882825 -0.08524100334134449 -0.973496649471845
6902525 -0.09003323403688714 -0.9727906074748859
6922325 -0.09496334930645035 -0.972408053196987
6942125 -0.09974854191891033 -0.9714886516873837
6961925 -0.10404332156563263 -0.9711512075234824
6981625 -0.1089897903192606 -0.9702550265145585
7001425 -0.1141426015990908 -0.9696547709688786
7021225 -0.11873694276289537 -0.9690771038747594
7041025 -0.12309740024867068 -0.9681670571980806
7060725 -0.1284682590549122 -0.9670539552356949
7080525 -0.13310356915595392 -0.966534840269651
7100325 -0.1374319306441503 -0.9658251975310505
7120125 -0.14262063749247483 -0.9645261393260989
7139825 -0.14735181687333604 -0.9643734069998581
7159625 -0.15200013098123766 -0.9631730706891372
7179425 -0.1564784650977458 -0.9620438290714683
7199225 -0.16105664781365314 -0.9610261657921032
7218925 -0.16580236654285366 -0.9599496994170078
7238725 -0.17066644042292992 -0.9591940573809669
7258525 -0.17521530586913464 -0.95786167180362
7278325 -0.17971928831008505 -0.9571767951275546
7298025 -0.1844528131961118 -0.9557543324578696
7317825 -0.18926031825080722 -0.9551250209473127
7337625 -0.1939341152753997 -0.9536691792746895
7357425 -0.19831890219153367 -0.9532250545528524
7377125 -0.20319568272959423 -0.9517168188974509
7396925 -0.2077301516226427 -0.9507246508498424
7416725 -0.2123363715599996 -0.9498105553324966
7436525 -0.2167743667722524 -0.9484488272970529
7456225 -0.22161280863341698 -0.9474376575972812
7476025 -0.22639867611708492 -0.9460718877142347
7495825 -0.2310904487386414 -0.9455148181161184
7515625 -0.23582615953326044 -0.9438131452083598
7535325 -0.2399251118185509 -0.9421473952235361
7555125 -0.24496050051525478 -0.9412253735470139
7574925 -0.24975594819291796 -0.9394818819682481
7594725 -0.25431692424824565 -0.9384232168677958
7614425 -0.2590112244174822 -0.9369383772425508
7634225 -0.26371857857663744 -0.9350806777224894
7654025 -0.2682433590123506 -0.9339007749932049
7673825 -0.27292090509176486 -0.9325839945404183
7693525 -0.2777659872451212 -0.9312109837463388
7713325 -0.28205133222086465 -0.9296047060596803
7733125 -0.28641484381625815 -0.9282326590675573
7752925 -0.29106615339632413 -0.9263974441251516
7772625 -0.29566502327695326 -0.9250159543562089
7792425 -0.30017990073699197 -0.9233539037142655
7812225 -0.3050348887366449 -0.9216722968734368
7832025 -0.30964071836393553 -0.9197872941149243
7851725 -0.31383340900740303 -0.9188158100240691
7871525 -0.3189368001642225 -0.9164791152680241
7891325 -0.3233625344260905 -0.9149334237250153
7911125 -0.32810880270118326 -0.9132092323589339
7930825 -0.33252311736147655 -0.9114771135289556
7950625 -0.33662687268385183 -0.9095692377382285
7970425 -0.3415881986759172 -0.9080644592681275
7990225 -0.3462384252117827 -0.905923089634903
8009925 -0.3504509616181471 -0.9041202719673866
8029725 -0.3551232547371072 -0.9019727344643458
8049525 -0.35918892752398174 -0.8999104179551752
8069325 -0.3639684499984308 -0.8983636396874691
8089100 -0.36861877041293273 -0.89597167069962
8108800 -0.37285166552152044 -0.894336645801486
8128600 -0.3773555395875697 -0.8921352586622593
8148400 -0.38149524804164026 -0.8901964421757007
8168200 -0.386273957752401 -0.8882221896571045
8187900 -0.3902128730290683 -0.8858687329869098
8207700 -0.39513960584806607 -0.8841531010732766
8227500 -0.3993814245505713 -0.8818534284136538
8247300 -0.40405642609981796 -0.8792945770184575
8267000 -0.4084500989679662 -0.8776236496837138
8286800 -0.4128903967902517 -0.8752314943238322
8306600 -0.41703269703993723 -0.8731413666322575
8326400 -0.421526211322401 -0.8707417076001365
8346100 -0.42580305287228276 -0.8683595443561501
8365900 -0.4300230513285368 -0.8656118869554471
8385700 -0.43441314187591273 -0.863711253007577
8405500 -0.43867825699729696 -0.861657135549647
