# Hz S RI R 50
100000 0.9968207966036168 -0.0239569604183055
119700 0.9977896505674682 -0.028546389847438274
139500 0.9971824590342132 -0.03366160473681007
159300 0.997050952420404 -0.0380532616721501
179100 0.9967356190129818 -0.04256991389854713
198800 0.9967223466822727 -0.04748811401532712
218600 0.9963695512955332 -0.05217330135023604
238400 0.9962830136308021 -0.05666660590311929
258200 0.9957605923543964 -0.06135314042097739
277900 0.9954338286632016 -0.06589342887955714
297700 0.995104465722064 -0.07052816717696378
317500 0.9948404637832339 -0.0753581216550298
337300 0.9943164947472393 -0.0798694387034615
357000 0.9940018154329686 -0.08478109974660526
376800 0.9935594283453376 -0.08931472796676664
396600 0.9931482761408281 -0.09416647098526065
416400 0.9925045349160023 -0.09861806214130185
436100 0.992262225837703 -0.10345147273331558
455900 0.9916495297735901 -0.10799130508370715
475700 0.9909019583411901 -0.11285165000782145
495500 0.9907315900459419 -0.11738525200821048
515200 0.9897409676240503 -0.12222878915512408
535000 0.9893549345319193 -0.1267883761087657
554800 0.9889236089787384 -0.13135218115290637
574600 0.9883345736274682 -0.13610465362539725
594300 0.987418505335623 -0.1408941684547461
614100 0.9866037829297248 -0.14537556274773533
633900 0.9862440497901688 -0.15018874433802706
653700 0.9852884327644542 -0.15497833386019155
673400 0.9846906440519304 -0.15942187700581611
693200 0.9836543980736295 -0.16391382423258588
713000 0.983342324677284 -0.16859265714308802
732800 0.9820936937072278 -0.17331030541250428
752500 0.9815857931521933 -0.17792522176273376
772300 0.9807551862214823 -0.18270272024580028
792100 0.9797672134149061 -0.18767888419435907
811900 0.9788681260985638 -0.19216812843702638
831600 0.9776686017863732 -0.19649439430030802
851400 0.976955927686168 -0.20128276131167563
871200 0.9754370321029739 -0.20600748850673636
891000 0.9745765351301152 -0.210774367164745
910700 0.9737839174093612 -0.2154867990532937
930500 0.9723324723132224 -0.2200457559745537
950300 0.9716996497537906 -0.22474393799808354
970100 0.9703399695943334 -0.22924290087847402
989800 0.9693785459958677 -0.23386894643240408
1009600 0.9681855840942654 -0.23855270886680627
1029400 0.9668771588169665 -0.24350595031367311
1049200 0.9660726122905213 -0.24792793386961706
1068900 0.9647082202559234 -0.2527557093591898
1088700 0.9634228262848663 -0.257596359671966
1108500 0.9623759824468454 -0.26182156144877977
1128300 0.9606092746854336 -0.2666245393622812
1148000 0.9593334417072028 -0.2715350737606367
1167800 0.9580777983717018 -0.27602501999902807
1187600 0.9566778849271494 -0.2806320188640592
1207400 0.9553649654232456 -0.28536897882663126
1227100 0.9537793017938285 -0.2900574992790197
1246900 0.9523692403551625 -0.2945194015961076
1266700 0.9507454615810931 -0.29916560803643494
1286500 0.9493866332710015 -0.30428257900360794
1306200 0.9479214250704977 -0.3088228971479239
1326000 0.9466781340049071 -0.31319374031541425
1345800 0.9446007684732401 -0.3183368027309078
1365600 0.9429507601826913 -0.3226453237388737
1385300 0.9414975001842875 -0.327567409856334
1405100 0.9399374798200423 -0.33195050427106193
1424900 0.9380633601791062 -0.33673089148597496
1444700 0.9365589433856335 -0.3414013557795045
1464400 0.9346680360014848 -0.34619773978916984
1484200 0.9330258983156058 -0.35096153986944567
1504000 0.9311237172342613 -0.35556974729679536
1523800 0.9290002673804831 -0.3599308207073907
1543500 0.9275418883225413 -0.36481326639233025
1563300 0.925394632397706 -0.36946400885113373
1583100 0.9238693757127475 -0.3743713668146961
1602900 0.9213513159327253 -0.3788861022545774
1622600 0.9192996894193617 -0.38351280885489664
1642400 0.9174699946059006 -0.38801489619942886
1662200 0.9159438373680687 -0.39295410604743675
1682000 0.9134695263150374 -0.39735215591963674
1701700 0.9117832194761634 -0.40228196116303
1721500 0.9091845142922567 -0.4068654890186092
1741300 0.9073300170481681 -0.4113997734998672
1761100 0.9049697789166558 -0.4163787398693675
1780800 0.9031053589304485 -0.4208250356974451
1800600 0.9009782054896852 -0.4255943520212045
1820400 0.8982159455629003 -0.4301666491780778
1840200 0.8959362789318694 -0.43490529207876094
1859900 0.8935807550073078 -0.4398047448345124
1879700 0.8914721518869237 -0.4445177785938712
1899500 0.8889555176853795 -0.4490725327044569
1919300 0.8864216395654537 -0.4538583507923221
1939000 0.883909017578102 -0.45871414254087206
1958800 0.8816196104220675 -0.463431228702031
1978600 0.8791697265207554 -0.46824582709990914
1998400 0.8765253526904677 -0.47277697698781096
2018100 0.8738104073034431 -0.47732531102644987
2037900 0.871224832616333 -0.4818433131339838
2057700 0.8684290552563971 -0.48692999559303257
2077500 0.8657273377036718 -0.4917023266196543
2097275 0.863261651028425 -0.49667129487939554
2116975 0.8602126267518437 -0.5010205130635663
2136775 0.8571340300096834 -0.5058186861512217
2156575 0.8544194936776325 -0.5102944215417592
2176375 0.8515361133497457 -0.5151717584865648
2196075 0.8487567420886273 -0.5202161915359663
2215875 0.8456905410776548 -0.5248582979560178
2235675 0.842649918029431 -0.5295452198971304
2255475 0.8395573296855848 -0.5343890723850393
2275175 0.8363257798933879 -0.538989593195818
2294975 0.8330521421927084 -0.5436296285386231
2314775 0.8297743276883435 -0.5483104414488131
2334575 0.8269268431698166 -0.5531100031900066
2354275 0.8232712178595443 -0.5586588009460025
2374075 0.8199865817758851 -0.5626906019876201
2393875 0.8165117831157206 -0.5676961543401701
2413675 0.8131133019879568 -0.5723891174218492
2433375 0.8096220964134382 -0.5771940611040637
2453175 0.8061600430289236 -0.5820619428704136
2472975 0.8025195759422282 -0.5867464557341564
2492775 0.7988530428743187 -0.5917328167654249
2512475 0.7952179940637083 -0.5966796672214024
2532275 0.7913489782384906 -0.6012093117329618
2552075 0.787695388092685 -0.606210135753318
2571875 0.7837249635191876 -0.6110427152098774
2591575 0.7799493319300682 -0.616086456344762
2611375 0.7756843301204003 -0.6207007496676605
2631175 0.7717542448154215 -0.6255141945574875
2650975 0.767282354127976 -0.6303391103090406
2670675 0.7634255983794417 -0.6354550636260246
2690475 0.7587978975140254 -0.640588918127994
2710275 0.7545885556050204 -0.6451633779857655
2730075 0.7500414938287757 -0.6501247075836939
2749775 0.745947256500231 -0.654635537217653
2769575 0.7412812162430544 -0.6600627156752114
2789375 0.7362751254505933 -0.6649152554143465
2809175 0.7319629753004295 -0.6697251572571322
2828875 0.7271809341543366 -0.6750659257122257
2848675 0.7219643965503936 -0.6800706738465312
2868475 0.7170512513722076 -0.6851489088753809
2888275 0.7121613831619927 -0.6898635021911276
2907975 0.7065784587225334 -0.694908704700448
2927775 0.7010450476611185 -0.700023785573126
2947575 0.695584145161111 -0.7052163649613632
2967375 0.6902319341598879 -0.7103042077301468
2987075 0.684248296861955 -0.7152936603707275
3006875 0.6783860563241031 -0.720367476065167
3026675 0.6722996567488945 -0.7255445289799826
3046475 0.6654998903022779 -0.7304507318606346
3066175 0.6591791488344991 -0.7351643638306764
3085975 0.6523827947050161 -0.7402392319214209
3105775 0.6452167945796565 -0.7447885986612639
3125575 0.6379740822265855 -0.7491659255820724
3145275 0.6302933332322886 -0.7531846797635533
3165075 0.622952122921424 -0.7570396211680401
3184875 0.6149151436529737 -0.7599000166122536
3204675 0.6075805768397394 -0.7622231650779406
3224375 0.601581704044847 -0.7636865031129486
3244175 0.5967027162844172 -0.7657459561495158
3263975 0.5925749317116888 -0.7694375562480203
3283775 0.5886010281716619 -0.7734232665314422
3303475 0.5840967098676751 -0.7789629397003548
3323275 0.578571306739614 -0.7852478650412145
3343075 0.5722906713298589 -0.79205712259117
3362875 0.5648916879539565 -0.7985075186073943
3382575 0.5573326097866375 -0.8050265409785428
3402375 0.5492769390209612 -0.8113491663268393
3422175 0.5406949035939527 -0.8174816478434256
3441975 0.5320315072490587 -0.8234079236983302
3461675 0.5226063045759649 -0.8291721471492106
3481475 0.5131511910820697 -0.8349001044532024
3501275 0.5029748430894517 -0.8408188504031194
3521075 0.4925613440717488 -0.846441894102814
3540775 0.4819567164511193 -0.852130857146884
3560575 0.4710318491451976 -0.8574868958827383
3580375 0.45977049218030064 -0.8630197556399943
3600175 0.4478694152407952 -0.8683934364577628
3619875 0.43551439420814414 -0.8728672680957293
3639675 0.42291516148236175 -0.8780629250716238
3659475 0.4098869557030486 -0.8830059058844182
3679275 0.39605000022280756 -0.8878801770574488
3698975 0.3822363240377144 -0.8923651075916958
3718775 0.36705626117469753 -0.8967721441953408
3738575 0.352380142468374 -0.9008480741170989
3758375 0.33667408028394313 -0.9041937077998428
3778075 0.32056947953198095 -0.9079157813362491
3797875 0.3041069282603394 -0.9115689250232857
3817675 0.2869465248120718 -0.914861297382035
3837475 0.268172305124514 -0.9175061913073437
3857175 0.24938070315120037 -0.9206057549444654
3876975 0.22936912804155693 -0.9227051338408518
3896775 0.20839404021466734 -0.924328052207229
3916575 0.18658128070066557 -0.9257037207725654
3936275 0.16397538320685284 -0.9263975481045553
3956075 0.13921819051795317 -0.9263484578662451
3975875 0.11379759213241235 -0.9253232558419107
3995675 0.08660033623478294 -0.9226954020378895
4015375 0.057879767669599395 -0.9194202734244394
4035175 0.028093062775918318 -0.9146414545517676
4054975 -0.0033585675652969965 -0.9081056885965773
4074775 -0.036287819996532134 -0.8999081943820348
4094550 -0.07115504233350534 -0.8885435856783622
4114250 -0.10737835569858273 -0.8756086422771826
4134050 -0.14611477919435573 -0.8580747492183548
4153850 -0.18671866364567333 -0.8378973405935296
4173650 -0.22895362324750348 -0.8123671465635212
4193350 -0.2717115464688884 -0.7816392734511123
4213150 -0.31625257813109087 -0.7441596571200269
4232950 -0.36015501236319913 -0.6994089355507047
4252750 -0.4028211936444336 -0.6458015884000763
4272450 -0.44234759157082987 -0.5833977433809777
4292250 -0.4772766185789473 -0.5104012610856864
4312050 -0.5043685094009901 -0.42692084919241446
4331850 -0.5204133677463381 -0.33355920124430705
4351550 -0.5219770975766832 -0.23298176793582068
4371350 -0.5064741798808439 -0.1265607201292683
4391150 -0.47052704075380897 -0.018866061716423896
4410950 -0.4138887871512575 0.08452752639783488
4430650 -0.336873366568371 0.17724385619470293
4450450 -0.24246912333458878 0.25446495180943196
4470250 -0.13520929010671068 0.31196169914916605
4490050 -0.021231996440460678 0.3466198711119973
4509750 0.09232199436321703 0.35906888887629634
4529550 0.201404921291488 0.35074895992328603
4549350 0.3011861256093947 0.32573094255972496
4569150 0.38923552464223776 0.28738966469087585
4588850 0.46356583459281603 0.2400181903561089
4608650 0.5262062187845259 0.18662992163050499
4628450 0.5761325674666661 0.1307256813945945
4648250 0.6157221165542875 0.07409819572736179
4667950 0.6461911709843426 0.018680974788597197
4687750 0.6685848718949197 -0.035363833107509964
4707550 0.6845574631029825 -0.08732529990543206
4727350 0.6949803255808232 -0.13636555427153654
4747050 0.70027298449316 -0.18232502924844593
4766850 0.7018899269071222 -0.22551848540792133
4786650 0.7003453087406093 -0.2658225922593907
4806450 0.6959116547147915 -0.3031840402480845
4826150 0.689508499957234 -0.3379271818860514
4845950 0.6811712351620599 -0.37028098112196545
4865750 0.6714442184900328 -0.4002435099576876
4885550 0.6608700164935409 -0.4279495878491389
4905250 0.6489036440649221 -0.4542759722318675
4925050 0.6360664963204239 -0.47841589231091
4944850 0.6227787094468616 -0.5013746198694534
4964650 0.6082965185903454 -0.5228201257924614
4984350 0.5932208275835688 -0.5428567786061309
5004150 0.5779198004944428 -0.5619121982357275
5023950 0.5611321264874238 -0.5793315795335593
5043750 0.5444518613444511 -0.5953664330873053
5063450 0.526527933315958 -0.6104245763090328
5083250 0.5080241439348439 -0.6238904083820882
5103050 0.4892204341873117 -0.6367330995847279
5122850 0.4697987477195492 -0.6484399045100072
5142550 0.44989289971830937 -0.6589556324283644
5162350 0.42901639440670286 -0.6683207868984967
5182150 0.40802915502149006 -0.6766549574206275
5201950 0.386465793363643 -0.6838074767867335
5221650 0.363994262942601 -0.6899953239709422
5241450 0.34074401537042914 -0.6945854343768475
5261250 0.31627423047414915 -0.697911777544388
5281050 0.2915772070598906 -0.7000948091266674
5300750 0.26594239661566627 -0.7002985829173245
5320550 0.2396833976427847 -0.698861148259547
5340350 0.212952552102504 -0.6951371415254434
5360150 0.18506017475409825 -0.6897731153198242
5379850 0.1569374789707176 -0.6820480092690107
5399650 0.12796929578536193 -0.6717064012695908
5419450 0.0990269465328488 -0.6580168714049789
5439250 0.0695985452868253 -0.6417136840774057
5458950 0.040676023999281996 -0.621801511673112
5478750 0.012144654419025217 -0.5978709284069957
5498550 -0.015627288615485114 -0.5701527188342228
5518350 -0.04178866016132464 -0.5382536145002005
5538050 -0.06525649932313304 -0.5019018573919641
5557850 -0.08567538931904202 -0.46129972021244947
5577650 -0.10189053791261131 -0.41555165826800844
5597450 -0.1134936472384483 -0.3664332599157409
5617150 -0.11880905244021016 -0.3140688440605668
5636950 -0.11683734629293735 -0.2585293047461453
5656750 -0.10732356099597501 -0.20218483445236582
5676550 -0.08941821149469158 -0.14561847978904538
5696250 -0.062483678900243526 -0.09115737121551919
5716050 -0.02723762352763171 -0.039344878880935415
5735850 0.01561766364970449 0.0069736330069711415
5755650 0.06521858096329432 0.04664639910203336
5775350 0.12001568329405016 0.07800154779377785
5795150 0.17828451025744518 0.10096455147163147
5814950 0.23836913341921703 0.11480310465048572
5834750 0.2979999747721475 0.12003233902206668
5854450 0.3557307493079619 0.11692098026093266
5874250 0.4106008130891632 0.1070323980938391
5894050 0.46151662048093717 0.09161180456626447
5913850 0.5079191985501692 0.07105892654295053
5933550 0.5500513349082612 0.046644805826178505
5953350 0.5876569960861789 0.01926020168992571
5973150 0.6204071016249734 -0.009975344526619167
5992950 0.6484764882054846 -0.04120294676740026
6012650 0.6725210685514752 -0.07223191903233821
6032450 0.6929709885448492 -0.10421949134464745
6052250 0.7097408457446552 -0.13593001195893234
6072050 0.7235809706547958 -0.16712995541715145
6091825 0.7344067292374422 -0.19813291048410145
6111525 0.742477340753628 -0.22763800074743684
6131325 0.7484915485091335 -0.25602088936801576
6151125 0.7522557593022708 -0.2836265206531884
6170925 0.7544610914072558 -0.30974486414929714
6190625 0.7555757302774303 -0.33524726977555097
6210425 0.7553413385522076 -0.35928142407666575
6230225 0.7538074157421425 -0.38283325955304237
6250025 0.7515019667423399 -0.40505185400285926
6269725 0.747872469369479 -0.42644741176957707
6289525 0.7440022149486097 -0.44679397621415007
6309325 0.7391575519388298 -0.46635807558162534
6329125 0.7331681158639534 -0.4848942689590656
6348825 0.7268674772798134 -0.5026882490177484
6368625 0.7198727552021764 -0.5209347573602834
6388425 0.713575137016395 -0.5365139450790191
6408225 0.70569788055203 -0.5517162545473658
6427925 0.6972710519626271 -0.5657456788543497
6447725 0.689982491872412 -0.579247305004682
6467525 0.6813619691908702 -0.5918729572822318
6487325 0.6736591248474922 -0.601718884050935
6507025 0.6646625325384631 -0.615733897621326
6526825 0.6565253476083786 -0.626475896679625
6546625 0.6478666258034005 -0.6372041640829115
6566425 0.6397033305537216 -0.6472045975062548
6586125 0.6314909570781073 -0.6567694247307023
6605925 0.6225399572782284 -0.6662382067376769
6625725 0.6144197377751544 -0.6755285061878885
6645525 0.6058232080891316 -0.6840845752449007
6665225 0.5970747131106278 -0.6926100896460442
6685025 0.5882492343757226 -0.6999910706455519
6704825 0.5791556231411698 -0.7075007858941085
6724625 0.5700475241275835 -0.715387755209752
6744325 0.5604531407543817 -0.7218245683139078
6764125 0.5513620411508031 -0.7284438852878838
6783925 0.5417786736594746 -0.7347146996107686
6803725 0.5322612962857806 -0.7402305112372612
6823425 0.5229782141108084 -0.7453524091632617
6843225 0.5125866783683042 -0.7506017804861609
6863025 0.5029919319346673 -0.7561143865066913
6882825 0.4930267350278326 -0.759912492395102
6902525 0.4829269384071543 -0.7639112526322267
6922325 0.47243748605052593 -0.7677718490065989
6942125 0.46180059352239083 -0.7706780783567406
6961925 0.4510200503145531 -0.7728350391242128
6981625 0.4399808994832568 -0.7749025059080387
7001425 0.4285353214207033 -0.7764185152593718
7021225 0.4177308346628637 -0.7769752861685741
7041025 0.4064436045487221 -0.7762389144515558
7060725 0.3947800277066071 -0.7752906635575086
7080525 0.3837413545578538 -0.7731652088052405
7100325 0.3733074471639283 -0.7699995434924223
7120125 0.3623338317255919 -0.7658497333965311
7139825 0.3523317716633408 -0.7606255102930409
7159625 0.34220193577402047 -0.7537868979637888
7179425 0.3337788831429729 -0.7450738970913338
7199225 0.32627731144182526 -0.7354937696756819
7218925 0.3208144936663795 -0.7244985334704659
7238725 0.31720744343498497 -0.7130549323209082
7258525 0.31609478868367835 -0.7008415308908519
7278325 0.31852355417513883 -0.68889230337601
7298025 0.32296708453963746 -0.6777772983598854
7317825 0.33029813915757966 -0.6686317596268316
7337625 0.3393542065129934 -0.6614153785005923
7357425 0.3507547503247138 -0.6570444842756805
7377125 0.3615484653442208 -0.6555501624363143
7396925 0.3726720645837768 -0.6565615039702298
7416725 0.38295157440829874 -0.6607007439381805
7436525 0.39209372180779806 -0.6657090026626106
7456225 0.3993808824881222 -0.6734040701316777
7476025 0.40504301643868307 -0.6814072820387699
7495825 0.40971938343697417 -0.6901688785463408
7515625 0.4127640851674265 -0.6993365033997222
7535325 0.414726014684654 -0.7080341074985718
7555125 0.4155125610929224 -0.7173231313830911
7574925 0.41539758902250584 -0.7260936693936068
7594725 0.41438687667559393 -0.7348302047597997
7614425 0.41294946121587855 -0.7430395362845204
7634225 0.41043576140224636 -0.7509716617725223
7654025 0.4081448580733426 -0.7586300705368131
7673825 0.4053701394474057 -0.766329033701867
7693525 0.40201204813144653 -0.7732231223969347
7713325 0.3986281429609854 -0.7796388696711637
7733125 0.39509307987080744 -0.7859627391936038
7752925 0.3913166985190289 -0.7920924469257663
7772625 0.3872815173799353 -0.7981061291229296
7792425 0.3837966648378448 -0.803877345802693
7812225 0.3794561088554004 -0.8096027749253248
7832025 0.37517745368786143 -0.8150711336831108
7851725 0.3713563009562741 -0.8208359183519099
7871525 0.3662198500884411 -0.8259032171490801
7891325 0.36205658793515794 -0.831560409116903
7911125 0.3572012179149182 -0.8369768602642128
7930825 0.35268961203122495 -0.8418996691685887
7950625 0.3476942335289922 -0.8467439590990608
7970425 0.34251263354219763 -0.8521756300108531
7990225 0.33689302454803516 -0.8567483026291296
8009925 0.3316461102149002 -0.8612888923469836
8029725 0.32586844144278426 -0.8660781912826419
8049525 0.3203537717462786 -0.8699192195916274
8069325 0.3150184384560017 -0.8744079964108876
8089100 0.3087472899975195 -0.8782947570354827
8108800 0.3031242527029428 -0.8824419161383646
8128600 0.29729438714408307 -0.8862705807705777
8148400 0.2916038753491577 -0.889296958616377
8168200 0.28575235615843714 -0.8931138302129734
8187900 0.2800744786405215 -0.8961729123973121
8207700 0.27396716384092235 -0.9004810823725969
8227500 0.2680333172599977 -0.9030724059996649
8247300 0.26135760601459956 -0.9064344989900704
8267000 0.2559930922785622 -0.9095075611066704
8286800 0.2496794025841544 -0.912292545017045
8306600 0.24375199685954158 -0.9150134765558208
8326400 0.23731173982809586 -0.9176530515029171
8346100 0.23106812619183528 -0.9202950119726394
8365900 0.22514090021562824 -0.9224347473134037
8385700 0.21880721076852383 -0.9251449695502436
8405500 0.2126041701040096 -0.9275130136598976
8425200 0.20627445823608934 -0.9294702923184928
