# Hz S RI R 50
100000 0.9906695257897165 -0.13480059209176018
119700 0.9851836190735552 -0.16020183302152774
139500 0.9802597904107602 -0.18664281250725273
159300 0.9746598435370355 -0.212412101306314
179100 0.9680900606170033 -0.23376341319322122
198800 0.9613250580777083 -0.2638719214235496
218600 0.9535538482027346 -0.2896255982002848
238400 0.9453035956717187 -0.3149528273664319
258200 0.9358068288559287 -0.33999772389504546
277900 0.9257150743860333 -0.3645433545014173
297700 0.9150740664685779 -0.38941795312607974
317500 0.9037523601245038 -0.41397808969408834
337300 0.8912402507428547 -0.437738869069757
357000 0.8783222671320319 -0.46118701089861547
376800 0.864542958582077 -0.48402795802032555
396600 0.8504399689027308 -0.506364900762314
416400 0.835963897907991 -0.5292080292110349
436100 0.820796547665413 -0.5512461399154309
455900 0.8044247086044363 -0.57311340143673
475700 0.7867676851487558 -0.5940070960646189
495500 0.7694349206007991 -0.6145228215370405
515200 0.7506784606797676 -0.634648597445674
535000 0.7309578458606666 -0.6531373754427793
554800 0.7110950257111638 -0.6713407877176841
574600 0.6909349900363665 -0.6881695654358384
594300 0.670897744383 -0.7034735302536969
614100 0.6502030442132681 -0.718174447881239
633900 0.6312046862831455 -0.7332364159045899
653700 0.6109537822001975 -0.7480287389404052
673400 0.5921195955029234 -0.7627470892332252
693200 0.5726155539351204 -0.7772715209135791
713000 0.5509187353936575 -0.792381682278928
732800 0.5297822998741705 -0.8063343050180347
752500 0.5074387066427629 -0.8209778836164575
772300 0.4842456439255339 -0.8337994160742843
792100 0.46022456272829165 -0.8472331794274449
811900 0.43589107896141593 -0.8586749844567526
831600 0.4115230046695956 -0.869902834090102
851400 0.3863283087987839 -0.8806210230541424
871200 0.36043170672566766 -0.8898461794925185
891000 0.333513595785436 -0.8989103108326036
910700 0.30313182528107596 -0.9043739876979281
930500 0.20616118891578955 -0.9556407713151761
950300 0.25311571832615554 -0.9200347451445209
970100 0.22529419102434523 -0.9256903235135158
989800 0.19773057830740182 -0.9298487152922459
1009600 0.16903105803232 -0.9331503795112688
1029400 0.14112364142453823 -0.9352314738697476
1049200 0.11263812513773605 -0.936924733987326
1068900 0.0839538718284533 -0.9374223569137705
1088700 0.054929553456838344 -0.9370119123484996
1108500 0.02567830296860008 -0.9356549744329745
1128300 -0.0028611906471469064 -0.9333990416652372
1148000 -0.0325133066170082 -0.9294906340745457
1167800 -0.06195645800688472 -0.925107836464513
1187600 -0.09117070924450979 -0.9195186291386863
1207400 -0.12146358213310775 -0.9121318786376483
1227100 -0.15143284935560508 -0.9034541215167995
1246900 -0.18110533999835993 -0.8939915654174782
1266700 -0.21116732104733899 -0.8817494729060792
1286500 -0.2418711041077505 -0.8680707170691975
1306200 -0.2720128269629906 -0.852206025172848
1326000 -0.30232549465334246 -0.8344605468235997
1345800 -0.33250943354328494 -0.8125041712404157
1365600 -0.36110282277871786 -0.7876030456592378
1385300 -0.38863663103278073 -0.7582026684072732
1405100 -0.41314086975363834 -0.723054762056553
1424900 -0.4327351988992741 -0.6821282668565357
1444700 -0.44352472167466483 -0.6371063104206062
1464400 -0.44386228116636073 -0.5898192322411198
1484200 -0.43146183555800743 -0.5416207744119587
1504000 -0.40051944141350937 -0.49896342710812996
1523800 -0.35304263248558826 -0.47385575958512943
1543500 -0.30023089834226885 -0.4778209605150659
1563300 -0.2607035675524303 -0.5099616619064823
1583100 -0.24679041146615746 -0.5560963384725469
1602900 -0.2579416958526252 -0.5998643544950114
1622600 -0.28587149981539195 -0.6330584816891058
1642400 -0.3222108507964901 -0.6535292983205768
1662200 -0.3608223280534779 -0.6625507473462895
1682000 -0.39796539963954713 -0.6619013592727011
1701700 -0.43340656899075125 -0.6555896344786931
1721500 -0.465815737572697 -0.6447996302679032
1741300 -0.49563441724776985 -0.6306953673993267
1761100 -0.5239204234040785 -0.6140101089416964
1780800 -0.549081312977943 -0.5961388933596082
1800600 -0.5727886105101626 -0.5763161817896315
1820400 -0.5943875494701247 -0.5551363891708707
1840200 -0.6144275039821392 -0.5332246212138572
1859900 -0.6327011508564411 -0.5106624107384299
1879700 -0.6499699093402019 -0.48748520456167793
1899500 -0.6655226297877009 -0.4637719570052436
1919300 -0.6799359719949749 -0.43901844719950084
1939000 -0.6926933427986259 -0.41410815068294987
1958800 -0.7043688152322843 -0.3888977546209071
1978600 -0.7146760897950316 -0.3632730225486984
1998400 -0.7232364291471232 -0.33766038350522926
2018100 -0.7312336839212453 -0.3121046964019178
2037900 -0.7377665702831314 -0.28659162755642786
2057700 -0.7429716761551345 -0.261241881228558
2077500 -0.7471962793400905 -0.23591073992386322
2097275 -0.7503647386566068 -0.21085790961132
2116975 -0.7530326352509503 -0.18683986590300874
2136775 -0.7551247567630843 -0.16302367784757
2156575 -0.75630307590255 -0.1384905910801846
2176375 -0.7574786282873596 -0.11539645659713288
2196075 -0.7579403469099014 -0.09195823212262623
2215875 -0.7581605397141546 -0.06835707943448643
2235675 -0.7582533699280946 -0.04506756930059322
2255475 -0.7582096203133681 -0.021732952551132067
2275175 -0.7574057380579637 0.0025554348702689724
2294975 -0.7557924012091065 0.026767666026592724
2314775 -0.7538761432978394 0.05214057373103239
2334575 -0.7512070687073228 0.07750531238057258
2354275 -0.7473170477830562 0.10311508145094837
2374075 -0.7420292445221542 0.13008924799292512
2393875 -0.7360806595212841 0.1560912260879484
2413675 -0.7277638182567595 0.18331820830535198
2433375 -0.7181603448212167 0.21028298028666842
2453175 -0.7074548845145251 0.23666252167394383
2472975 -0.6941286017303473 0.26272372516623177
2492775 -0.6805744693444595 0.28714158850987487
2512475 -0.6662246884866186 0.31092669664915323
2532275 -0.6503829844666045 0.3344682541251926
2552075 -0.6334290873458585 0.3570942834517498
2571875 -0.6163331474372433 0.37851704609064146
2591575 -0.5968933068281878 0.3987540010212298
2611375 -0.5778344406093744 0.4161172638504214
2631175 -0.5651721030369306 0.4343054892216355
2650975 -0.547608094461969 0.46245880856074717
2670675 -0.521784671190095 0.4848119144155015
2690475 -0.4961685339768602 0.5043556262227802
2710275 -0.47002443450727194 0.5221526477429551
2730075 -0.442317842249203 0.5388373845765982
2749775 -0.4155740280392328 0.5543194464030718
2769575 -0.38652900992639216 0.5687765096161492
2789375 -0.35674957352776165 0.5820429340648375
2809175 -0.32500249629650885 0.5940576323847665
2828875 -0.29257521699802463 0.6046439280121912
2848675 -0.2586904245268091 0.6133882449049354
2868475 -0.22373910036290515 0.6201827609845171
2888275 -0.18730871791801854 0.6254156370886764
2907975 -0.1499848768428989 0.6285538192923972
2927775 -0.11126775239399551 0.6286830887846261
2947575 -0.07126602513882663 0.6264248360446494
2967375 -0.029965135627853818 0.6205429837573074
2987075 0.011676523460415941 0.6120558432800425
3006875 0.054574743869680434 0.5989525157317102
3026675 0.09791414019239202 0.5822816692208108
3046475 0.14094322878187399 0.5607517201627222
3066175 0.1837216518967233 0.5345756063787761
3085975 0.22581982393677588 0.5029165650412486
3105775 0.2659273174108478 0.4646051704784684
3125575 0.3035386237698987 0.4201516640053651
3145275 0.33663182094253524 0.3692818822779331
3165075 0.3646342117038232 0.31163798873279946
3184875 0.3857762381276549 0.24727024870483483
3204675 0.3978417108011089 0.17808167994167062
3224375 0.3997078810762673 0.1044047088102451
3244175 0.389099330707062 0.028617954401711786
3263975 0.3659515576057623 -0.047555500503040936
3283775 0.32820178796850497 -0.12069483949658778
3303475 0.27789931937939705 -0.18730769518916324
3323275 0.21381825017789818 -0.24538500603495442
3343075 0.14000661864563693 -0.29168345461813067
3362875 0.05793157347622674 -0.3227317787096003
3382575 -0.02710754615325455 -0.33861398760754136
3402375 -0.11353536812335696 -0.3371474353860685
3422175 -0.19625004847256022 -0.3207213055881789
3441975 -0.27215585918131946 -0.28996432458341365
3461675 -0.33901113158437207 -0.24826270154373287
3481475 -0.3953648640578676 -0.19761491950246918
3501275 -0.4406999524960962 -0.14092714443329496
3521075 -0.47443715922807594 -0.08079174992600284
3540775 -0.4970531475842182 -0.02025265415277475
3560575 -0.5097344146995884 0.03993893111073485
3580375 -0.5138062839881136 0.09784932864579611
3600175 -0.5097886963078766 0.1519726652507427
3619875 -0.4997493728055695 0.2019427163990914
3639675 -0.48419230111577116 0.24665355864604482
3659475 -0.465118012969181 0.2856347875141016
3679275 -0.44374295447183176 0.3191500869575373
3698975 -0.42097692586245794 0.34716025657188443
3718775 -0.39822776631368656 0.3710433532048611
3738575 -0.37614650781441167 0.3910041215546482
3758375 -0.355250841965784 0.4074184187377206
3778075 -0.33715849463410885 0.4216783807542262
3797875 -0.3204126210042832 0.43401684048518085
3817675 -0.3061704365892774 0.4466083332541637
3837475 -0.29266601162891115 0.45893468897770284
3857175 -0.27958891831188143 0.47226434556502217
3876975 -0.2668425685591336 0.48571168492652916
3896775 -0.2536375966727252 0.5003072559548007
3916575 -0.23961979935821406 0.5137454138098762
3936275 -0.22483194983778237 0.5284018596698256
3956075 -0.20967965758424884 0.5422244257465234
3975875 -0.1930007098759903 0.5562373530793835
3995675 -0.17563852044643216 0.5698696323777781
4015375 -0.15762111257655848 0.5821055141469177
4035175 -0.13850063778127758 0.5937737950686746
4054975 -0.11890004759870974 0.6043938653666702
4074775 -0.0994898232297815 0.6143142107337206
4094550 -0.07979687210354616 0.6240406196314611
4114250 -0.05868877458961739 0.6330602764162439
4134050 -0.03729584758877695 0.6420914202187225
4153850 -0.015077428908847905 0.6490399638732978
4173650 0.0077053290749536 0.6556171243735016
4193350 0.03086618057793597 0.6612510113405938
4213150 0.0544421343050848 0.6659863452661501
4232950 0.07876387524223892 0.6690827013088458
4252750 0.10298085884775371 0.6712897617998221
4272450 0.12747492276568181 0.6719635553096891
4292250 0.15162694165082458 0.6720909546454377
4312050 0.17613031386887756 0.6704039086936431
4331850 0.20022275718111412 0.668278757920689
4351550 0.22444122863163193 0.6650942929051744
4371350 0.2484059172480716 0.6602784821174575
4391150 0.2721275587602209 0.6549763237585993
4410950 0.2954116618206962 0.6488718256962089
4430650 0.3182330745960318 0.6417211388495105
4450450 0.3405661075550627 0.6333123388000652
4470250 0.3628873243551153 0.6243401236804852
4490050 0.3848250893803471 0.6145507657531603
4509750 0.40613878657834074 0.6042103371595371
4529550 0.4269805518725598 0.5928133228550645
4549350 0.4473483274229683 0.5804489860964833
4569150 0.46757618799121503 0.5675118604371979
4588850 0.4865836048171911 0.55440827272226
4608650 0.505654420589739 0.5401474260559072
4628450 0.5239392052627926 0.5247547929432912
4648250 0.5414803305049456 0.509358517216293
4667950 0.5583020362353294 0.49349985038274463
4687750 0.5746819986460314 0.4768698191025434
4707550 0.5901046283230535 0.45952538904103984
4727350 0.6061007205712594 0.44224236800278177
4747050 0.6204790618566933 0.4242988152482398
4766850 0.6345518308240706 0.40576550968632935
4786650 0.6475612523207052 0.38666230423746917
4806450 0.6599509837996236 0.3672254548782193
4826150 0.6714690169841824 0.3475896559490575
4845950 0.6826886345501109 0.327555278383135
4865750 0.6930516294719935 0.3073642935362584
4885550 0.7028242729924342 0.2870589776858692
4905250 0.7113121427398135 0.2663119830608026
4925050 0.7197111284957687 0.24566746749069476
4944850 0.7278542309089318 0.22470709852895687
4964650 0.7349307812619178 0.20307404806982493
4984350 0.7413151368460121 0.18114069699512633
5004150 0.7473554370930231 0.1588032565702171
5023950 0.7514466600274817 0.1361599690112536
5043750 0.7546819146733912 0.11344794089321385
5063450 0.7559213959566702 0.09119005208792741
5083250 0.755432702630948 0.07054953729659579
5103050 0.7554131556227662 0.05319590640806323
5122850 0.7592049360211826 0.03610000322393706
5142550 0.7642231951283885 0.016220877047509404
5162350 0.7677142995952131 -0.006016806064145382
5182150 0.7699640492027847 -0.029256091068028692
5201950 0.7706704435800962 -0.05246607141123181
5221650 0.7703094822522566 -0.07583115132729457
5241450 0.7686001494174045 -0.09923091754681546
5261250 0.7664725511680527 -0.1223245865331403
5281050 0.7631042985373294 -0.1454678129932211
5300750 0.7587461474823445 -0.16831301330591575
5320550 0.7542630880998211 -0.1909051314948454
5340350 0.7484927267002273 -0.21370385401768405
5360150 0.7422146440429581 -0.23601366834511625
5379850 0.7351034255225116 -0.25849141597003217
5399650 0.7269923240373846 -0.2804053914690811
5419450 0.7184349146995284 -0.3020376530356357
5439250 0.7088718622371661 -0.3237685296454168
5458950 0.6989292232245973 -0.3446720098996895
5478750 0.6874987193917997 -0.36572912057688106
5498550 0.6757084594893707 -0.3857445880744676
5518350 0.6636922306412031 -0.40630512251734535
5538050 0.6506207945200282 -0.42589508294322437
5557850 0.6368350540111984 -0.44533604357383444
5577650 0.6223454627330222 -0.4636037935968874
5597450 0.6070862371970595 -0.4820372928416391
5617150 0.5916381349255422 -0.5001799227631039
5636950 0.5751795638772377 -0.5172882277645581
5656750 0.5578743755899256 -0.5339133105547411
5676550 0.5400613034952487 -0.5505722829550819
5696250 0.5221072091370625 -0.5660010533577124
5716050 0.5034681888359487 -0.5806088592609352
5735850 0.48404660433918356 -0.5947854000372601
5755650 0.464250584996945 -0.6083725748163255
5775350 0.44380199745255416 -0.6208612081229862
5795150 0.4232270100747771 -0.6330942314631857
5814950 0.4021122626936859 -0.6443514505902308
5834750 0.3803573856025228 -0.655145352981349
5854450 0.35855043601508446 -0.6650379621777058
5874250 0.3363027673664305 -0.6737155655717886
5894050 0.3134712148464341 -0.6823347124286018
5913850 0.290530012997331 -0.689932674523366
5933550 0.26742472906616593 -0.6964404100323233
5953350 0.24374917946670263 -0.7024699183994334
5973150 0.22024220302209735 -0.70772860908647
5992950 0.19558328206028178 -0.7118339155296759
6012650 0.17162988677590998 -0.7150267380387583
6032450 0.14661683333910175 -0.7175056212607656
6052250 0.12200562192037603 -0.7194139763316756
6072050 0.09695680494378676 -0.7198913201346545
6091825 0.07285364869440022 -0.7199600633928579
6111525 0.04814061104156261 -0.7186082379578248
6131325 0.023066726981569204 -0.7158235033650793
6151125 -0.002684693228564896 -0.7123762864848151
6170925 -0.028053125297073288 -0.7072738351607333
6190625 -0.05299094789695157 -0.7019868825587696
6210425 -0.07800390308642931 -0.6951244132017345
6230225 -0.10346874479560655 -0.6874048720367798
6250025 -0.12841808129991258 -0.6788260057353386
6269725 -0.15296286053755936 -0.6678130647310905
6289525 -0.17732037420196486 -0.65649573769443
6309325 -0.20166120990622863 -0.6430031134255657
6329125 -0.22499143307643446 -0.6284456424627578
6348825 -0.24752416763005472 -0.6124643643312339
6368625 -0.26996745311565484 -0.5952729335216799
6388425 -0.2915547004810208 -0.5763740782501239
6408225 -0.3112330493271845 -0.5569146715599053
6427925 -0.33021941268565186 -0.5352812317832443
6447725 -0.3471749053842545 -0.5132844875341177
6467525 -0.36466082058639776 -0.48969869712241854
6487325 -0.38045330231899005 -0.4637136152461624
6507025 -0.392573942686207 -0.44059470940938816
6526825 -0.4043353812375275 -0.41517752182112805
6546625 -0.4152193070266911 -0.3892160628787749
6566425 -0.42424108114903764 -0.36277429462894073
6586125 -0.4320317210798091 -0.33547573592753777
6605925 -0.4382836371928167 -0.3076903466153119
6625725 -0.4428339498572092 -0.2794546694571967
6645525 -0.4457190909958492 -0.2507435880512482
6665225 -0.44692917264827076 -0.2218268699794488
6685025 -0.44602516169265705 -0.19199686968542662
6704825 -0.44285563519188015 -0.16206303786815365
6724625 -0.43801935636882905 -0.1323326681147517
6744325 -0.4305268483097505 -0.10254800442630493
6764125 -0.4201211541650839 -0.07317135893961803
6783925 -0.40811970656475977 -0.044371674140160015
6803725 -0.39269359428676676 -0.016464346568327886
6823425 -0.3752877706301476 0.010262026541447112
6843225 -0.35539136222924483 0.03605740947830789
6863025 -0.33303451830438696 0.05953023802035149
6882825 -0.3077663487812533 0.0814723041289833
6902525 -0.2800856842756158 0.10087954474283521
6922325 -0.25055400535707056 0.11809441136568787
6942125 -0.21895664123328068 0.13221996456515675
6961925 -0.1860994112385928 0.14214193200978642
6981625 -0.15194677394596376 0.14907166754280765
7001425 -0.11759331660162681 0.1520020316067848
7021225 -0.0828916788135214 0.15053584647237725
7041025 -0.04836562389119584 0.14631298535940176
7060725 -0.015109737741818847 0.1379746570873791
7080525 0.017267135619343274 0.12602798291839487
7100325 0.04842841777176892 0.11053482662726534
7120125 0.0774981522940124 0.09155868629334564
7139825 0.10442612452783334 0.06872125970084003
7159625 0.12882185504248908 0.04326540236374392
7179425 0.1503383713212388 0.015257126931057977
7199225 0.16790668980495624 -0.01598281067372104
7218925 0.18189018202842536 -0.048990052088531535
7238725 0.191161985436174 -0.0837964859562504
7258525 0.19635299940571924 -0.11929382689911626
7278325 0.19682030126833633 -0.1550627369547473
7298025 0.19247261510685726 -0.18954238543849372
7317825 0.18420948326455625 -0.22260250905246534
7337625 0.1721102976977559 -0.2539036281674941
7357425 0.15707708101867293 -0.28278688263709995
7377125 0.13906154417498612 -0.30842184428841696
7396925 0.11928156805987328 -0.3318704001795708
7416725 0.09812200281256492 -0.35191324876335794
7436525 0.07584660335062503 -0.36917693167438914
7456225 0.05296503457188493 -0.3838334732912569
7476025 0.02983237793344522 -0.3958580237258302
7495825 0.007002498264369884 -0.4060605763755301
7515625 -0.016087364338979 -0.41401148988433956
7535325 -0.038809758642723624 -0.4196709138799586
7555125 -0.06129662178194518 -0.42436864431448573
7574925 -0.08350707403141543 -0.42671168767435175
7594725 -0.10516516648733501 -0.42828463044932835
7614425 -0.12628646786809763 -0.42836426303727404
7634225 -0.14667723640478456 -0.42674773147806533
7654025 -0.16646221223021374 -0.424615103589462
7673825 -0.1855661029819856 -0.42147428033587087
7693525 -0.20362276362976708 -0.4173652820321772
7713325 -0.22063078820689053 -0.41252248447120354
7733125 -0.23733206101399754 -0.4077076691883745
7752925 -0.2531575588254341 -0.4022483645656086
7772625 -0.26893097624185247 -0.39690766886475465
7792425 -0.284055853975592 -0.3915413491952227
7812225 -0.2994901474350825 -0.38570446334463393
7832025 -0.3146000799152771 -0.3797449936115841
7851725 -0.3295898197033871 -0.3736251956654253
7871525 -0.34493892062487824 -0.36681365978870045
7891325 -0.3600270056286641 -0.3595861295899517
7911125 -0.3757734494903134 -0.3516933406038453
7930825 -0.3908220631162042 -0.34299979175845224
7950625 -0.40586844966113844 -0.3335270435374516
7970425 -0.4211109870518474 -0.32341439691309776
7990225 -0.43587868562346077 -0.3122633969801099
8009925 -0.4500364482223643 -0.3007726225942692
8029725 -0.46421284376439004 -0.2884510793690199
8049525 -0.4773961412994676 -0.27555404161946295
8069325 -0.4903991375845203 -0.2623117020098244
8089100 -0.5037064341012883 -0.24862765063553025
8108800 -0.5161412855008796 -0.23381818630775764
8128600 -0.5277650184206787 -0.218738152369082
8148400 -0.5389302343922194 -0.20299681637570116
8168200 -0.5497506816283301 -0.18706750026719254
8187900 -0.5601878620649432 -0.17068833573595085
8207700 -0.5702420781157485 -0.15368727494813003
8227500 -0.579768477137894 -0.13609202883630647
8247300 -0.5887625621474103 -0.11792443644308291
8267000 -0.5972463803032173 -0.09960765583780393
8286800 -0.6050718628447495 -0.08022380849206587
8306600 -0.6118851577546661 -0.06041687481564531
8326400 -0.6181992983476211 -0.0401096733064965
8346100 -0.6235851039275245 -0.019379712144359067
