# Hz S RI R 50
100000 0.9974869121801937 -0.0242110526498889
119700 0.9971241387822073 -0.028574216630227137
139500 0.9971450881858029 -0.03338679528055721
159300 0.9969588284088924 -0.03809267663889592
179100 0.9968051545714692 -0.04253080417952689
198800 0.9965524993027323 -0.047206115182473904
218600 0.996222138030136 -0.05203588177666011
238400 0.9961468007328054 -0.05660745391838519
258200 0.995592901790944 -0.061396544751386374
277900 0.9952274166965762 -0.0656883243050952
297700 0.9952134950202077 -0.0705713356668615
317500 0.9948079930489424 -0.07531020227245777
337300 0.994235918396029 -0.079947456229655
357000 0.9939870739148938 -0.08463374376019478
376800 0.9936312959798197 -0.08917857625468377
396600 0.9932000165021799 -0.094008735624286
416400 0.9923997016310097 -0.0985387885133814
436100 0.9922602080422578 -0.10325101276114143
455900 0.9915532523302951 -0.10785718752055393
475700 0.9909690606957751 -0.1126121528961014
495500 0.9907107532585716 -0.1172659139579175
515200 0.9899859266244276 -0.12185525729350173
535000 0.9895519187284103 -0.126441683090342
554800 0.9890083851516981 -0.13094607998106045
574600 0.9882867517491749 -0.13540948816953724
594300 0.9875366886209601 -0.14032705080561894
614100 0.9867538594347911 -0.1449694482848537
633900 0.9863291839185554 -0.14971110920137534
653700 0.9854493331809656 -0.15436515231114567
673400 0.9847016499229332 -0.15898336331715981
693200 0.9838529983000964 -0.16330655459528293
713000 0.9834264579254186 -0.16809587856796437
732800 0.9823019433565151 -0.17243827220545663
752500 0.9815467919697815 -0.17717397690401318
772300 0.9807386463019847 -0.1816271658519677
792100 0.9799048708102204 -0.18644229073551094
811900 0.9790329882935283 -0.1909440186491892
831600 0.9781421176171441 -0.19533998861623908
851400 0.9772222648088721 -0.20015111979441155
871200 0.9757247863229548 -0.20458891643822555
891000 0.9749067054891368 -0.20930890055799245
910700 0.9740929774128945 -0.21398401436676814
930500 0.9731978161410856 -0.2182961623178241
950300 0.9720282826240663 -0.2230727238653387
970100 0.970928474318636 -0.22732863632708625
989800 0.9698355093429589 -0.2319102475497359
1009600 0.9688541551096104 -0.2367537587248626
1029400 0.9674029758121051 -0.24120807856688967
1049200 0.9664772753153533 -0.24552346757692967
1068900 0.9652776943009704 -0.25024678956608115
1088700 0.9638531956415659 -0.25476898014238214
1108500 0.9630843091055147 -0.25921169942035255
1128300 0.9615880769502086 -0.26385581265814073
1148000 0.9603952225798463 -0.26844573259122007
1167800 0.9591846860857725 -0.27273985965397995
1187600 0.9577016687704992 -0.27727984067379274
1207400 0.956163465171157 -0.2817119379493818
1227100 0.9550059963576655 -0.2861355151164284
1246900 0.9536256505210349 -0.290730844303704
1266700 0.9522205574419552 -0.29512022402640387
1286500 0.9507648163542485 -0.29959907624757576
1306200 0.9494256278120838 -0.30409333669162514
1326000 0.9482164639026982 -0.30835706247464645
1345800 0.9462476162486492 -0.31327074756317713
1365600 0.9448366321721746 -0.31736451669726035
1385300 0.9434407607236183 -0.321992475954415
1405100 0.9420028562675833 -0.3262625967315305
1424900 0.9404318979155769 -0.3306634865266989
1444700 0.9387461122326561 -0.33527299784311726
1464400 0.9370210868870833 -0.3395826456319465
1484200 0.9356010493077138 -0.34399486579048905
1504000 0.9338427478361635 -0.34839381623160987
1523800 0.9322005002855556 -0.35245221189345066
1543500 0.9304215282968618 -0.3573091565898681
1563300 0.9287342696083588 -0.3615354554543386
1583100 0.9271799822712219 -0.36592585262270244
1602900 0.9249146359915482 -0.3700666876751876
1622600 0.9232054211689936 -0.37460736727487715
1642400 0.9216719808624474 -0.37884215120153036
1662200 0.9200427464828087 -0.38341915211425964
1682000 0.918097544775595 -0.38738277127157844
1701700 0.9164752915917741 -0.3920228305235652
1721500 0.9140563725249585 -0.3962134361350154
1741300 0.9126384491863598 -0.40039569609725995
1761100 0.9104029999363102 -0.4050450995924348
1780800 0.9086690842385571 -0.40894157961447014
1800600 0.9068461317398318 -0.4133983402131659
1820400 0.9046949451256829 -0.4172753463968158
1840200 0.9023951699367667 -0.42166174935669226
1859900 0.9005311937781519 -0.426289399123574
1879700 0.8986679957925924 -0.43020743163243236
1899500 0.8965219897235401 -0.43459831758760026
1919300 0.8944893914233781 -0.43870601176437896
1939000 0.8922981070063007 -0.44289097634386193
1958800 0.8904169380556923 -0.44719171056954826
1978600 0.8882296716583901 -0.45139024176942877
1998400 0.8859018920875082 -0.45568636381192357
2018100 0.8835932589062531 -0.4595811874798495
2037900 0.8814511802509187 -0.46343717870917767
2057700 0.8793431091662487 -0.46792063396562034
2077500 0.8769840499053466 -0.472150021561931
2097275 0.8749049184742418 -0.4763665611484806
2116975 0.8722522170223719 -0.48033518647532714
2136775 0.8699450890405721 -0.4844327872885307
2156575 0.8676399766239666 -0.4885680561571778
2176375 0.8654364111962678 -0.49257873575171107
2196075 0.86324119104979 -0.4968767107263684
2215875 0.8607803106835407 -0.5008261009008971
2235675 0.8582218382359316 -0.5047215895803717
2255475 0.8558130261698872 -0.5089756466012136
2275175 0.8533102116411401 -0.5127811444262708
2294975 0.850852513835829 -0.5168325534526891
2314775 0.8482813935657944 -0.5209740515127579
2334575 0.8462011617499355 -0.5248574855536366
2354275 0.8433920323860072 -0.5290138935293864
2374075 0.8406183829634005 -0.53266511737027
2393875 0.8382425843649578 -0.5369746320225613
2413675 0.8356953524736852 -0.5406172445501364
2433375 0.8330306300805705 -0.5448266456227633
2453175 0.8303484800852721 -0.5488303941694097
2472975 0.8276597715333693 -0.5526281112070236
2492775 0.8251162671202024 -0.5564301932778246
2512475 0.8225058384912141 -0.5605777364939909
2532275 0.8195442981655374 -0.5641924196680747
2552075 0.8169899172383485 -0.5683184423125219
2571875 0.8141105121366247 -0.5721173821216337
2591575 0.8113415112982227 -0.5759455699479608
2611375 0.808697769216568 -0.5796413106031204
2631175 0.8059617341030586 -0.583199033799301
2650975 0.8028325305288064 -0.5872119258616271
2670675 0.8004748135400064 -0.5911166304417103
2690475 0.7971123563992949 -0.5950102293547276
2710275 0.7944109563778066 -0.598515077234066
2730075 0.7912871380298097 -0.6024068575511117
2749775 0.788533092548273 -0.6056812269710712
2769575 0.7858192398757947 -0.6098220151032752
2789375 0.7825896713077455 -0.6134163841122074
2809175 0.7796756035622285 -0.6170427454641603
2828875 0.7768327895747874 -0.6206687900997823
2848675 0.7737371662579154 -0.6245424325997253
2868475 0.7707199086047233 -0.6281050473700368
2888275 0.7679081112782539 -0.6317364469462062
2907975 0.76473348216753 -0.6353887434272758
2927775 0.7614220716761585 -0.6389787813068408
2947575 0.7584443713268607 -0.6425974066411272
2967375 0.7553595223201429 -0.6464066442752271
2987075 0.7523088765991164 -0.649906855531194
3006875 0.7489473969624305 -0.6535728414244203
3026675 0.7460095991273613 -0.6569049590498931
3046475 0.7425635102844675 -0.6604108648706294
3066175 0.7393209367635575 -0.6639699591377254
3085975 0.736157531854196 -0.6673822331262753
3105775 0.7329524363389793 -0.6708878875582832
3125575 0.7297678817465539 -0.6743047825723921
3145275 0.7265222119152508 -0.6778125679041828
3165075 0.7235739346326244 -0.6814169292000138
3184875 0.7198119818322205 -0.6848939470359495
3204675 0.716234499938416 -0.6881474573768492
3224375 0.7133262831232419 -0.691609998487031
3244175 0.7098723651816071 -0.6946044281873455
3263975 0.706834592060588 -0.698593520468747
3283775 0.7029772266437403 -0.7016141396641795
3303475 0.6998128113532993 -0.7048949818480406
3323275 0.6961062370578628 -0.7080595644376594
3343075 0.6928892604865172 -0.7116519306984211
3362875 0.6890897987411602 -0.7149171049822027
3382575 0.6854567685490464 -0.7182462481808981
3402375 0.6823823035916531 -0.7213618804827044
3422175 0.6789039221161949 -0.724800031114333
3441975 0.6753369509261702 -0.7276668839251201
3461675 0.6718138138512559 -0.7308266826749731
3481475 0.6682420235703282 -0.7339825275678478
3501275 0.664719900249115 -0.7375568404164391
3521075 0.6608630613127845 -0.7405003805769469
3540775 0.6573661776145361 -0.7437229302903425
3560575 0.6536770167220254 -0.7467485513807467
3580375 0.6499730074400109 -0.7497399373013376
3600175 0.6463525285632398 -0.7530848137449847
3619875 0.6426437917255531 -0.755454761994894
3639675 0.6390052867187941 -0.7590301480370215
3659475 0.6354118468688079 -0.761916868463593
3679275 0.6314973242263322 -0.7650751424771122
3698975 0.627979574856413 -0.7681415833707477
3718775 0.6238881229016893 -0.7710696522753253
3738575 0.6205375107054201 -0.7740702757240644
3758375 0.6164087654153403 -0.7768293924444433
3778075 0.6126552404715728 -0.7799340111291156
3797875 0.6091065248453322 -0.7829177915755217
3817675 0.6052547806793102 -0.7858858378164951
3837475 0.6010351658664629 -0.7885659262636221
3857175 0.5972144852053813 -0.7915157819712345
3876975 0.593412857446399 -0.794493264170937
3896775 0.5893867929403822 -0.7971081013162445
3916575 0.585627557954243 -0.7997458552840753
3936275 0.582003211545929 -0.8024809078936125
3956075 0.5777660056246378 -0.8053411066535415
3975875 0.573829355997006 -0.8080927547392328
3995675 0.5696943329978137 -0.810632719276217
4015375 0.5658392093220637 -0.8136969451939807
4035175 0.5617935910963041 -0.8165003109133042
4054975 0.5577538720323367 -0.8189003262905344
4074775 0.5538761341343875 -0.8215906350911991
4094550 0.549751731763868 -0.8244789665714276
4114250 0.5458563165722774 -0.8266625531970335
4134050 0.5414879416010719 -0.8292347650320985
4153850 0.5374835978130206 -0.8319250330528989
4173650 0.533299696150549 -0.8344261147887484
4193350 0.5293735996629113 -0.8366704125773405
4213150 0.5249643170400548 -0.8395036959149814
4232950 0.5208834450196174 -0.8420139207288952
4252750 0.5170073019103235 -0.844298095713323
4272450 0.5128107439255538 -0.8466194122698768
4292250 0.5085536542358885 -0.8493898315004016
4312050 0.5041610934425198 -0.8515551919131218
4331850 0.5001425524243228 -0.8541852385081972
4351550 0.49601050482252673 -0.8563779710156696
4371350 0.4915189188421715 -0.8590659990452848
4391150 0.4873060850772558 -0.8608741820373099
4410950 0.48300610366829383 -0.8634342852235892
4430650 0.478602805606597 -0.8656207871081811
4450450 0.47457307859850295 -0.8683307155468419
4470250 0.4699868342001397 -0.8702113587933854
4490050 0.4656806048564751 -0.8728237006670111
4509750 0.46128794955865327 -0.874747690348725
4529550 0.4572434085629399 -0.877078290767489
4549350 0.45271013398929866 -0.8791029999233242
4569150 0.44865149107420293 -0.8811430352244
4588850 0.4436229685475593 -0.8833253700637751
4608650 0.43971149401595566 -0.8854716835960643
4628450 0.4352573414893355 -0.8876261140166779
4648250 0.4309591047022701 -0.8898507615237716
4667950 0.4263220660260878 -0.8913950726035574
4687750 0.42191821937123636 -0.8936628414083645
4707550 0.4177896535396293 -0.8964737099012563
4727350 0.4127269482613398 -0.8979334330477425
4747050 0.4083652410821145 -0.8995117413525758
4766850 0.40400007375900154 -0.9015826707959984
4786650 0.3995226178735659 -0.9034508927005115
4806450 0.3946302657958484 -0.905106778563642
4826150 0.39047217994629313 -0.9073195925667719
4845950 0.3853135462488894 -0.9088813684198619
4865750 0.38078677153026724 -0.910612345979571
4885550 0.376603478362339 -0.912222828722464
4905250 0.3719972631315454 -0.9144170909656031
4925050 0.36724388798985524 -0.9154994991508667
4944850 0.3626107296191383 -0.9175533706836697
4964650 0.35765060886359856 -0.9193417215478183
4984350 0.35322293064763777 -0.9207848783205126
5004150 0.3486070027279288 -0.9228317074911305
5023950 0.3436591826743311 -0.9241103684232753
5043750 0.339416918576619 -0.9257779857891205
5063450 0.3346647147575485 -0.927486078806045
5083250 0.329941997666333 -0.9284891456916999
5103050 0.32500415923642817 -0.9297989257214798
5122850 0.3202527957828526 -0.9313295775578084
5142550 0.31548212853923463 -0.9323853851132826
5162350 0.310451214466099 -0.93375918814089
5182150 0.3059186242265782 -0.9349077013082558
5201950 0.3016496599627438 -0.9361354590191935
5221650 0.29678479023683274 -0.9375348295439175
5241450 0.292523907392652 -0.9385279075193358
5261250 0.28782165817812055 -0.9394780407493127
5281050 0.2833574034925603 -0.9406553615051865
5300750 0.2788707050917184 -0.9420113821827111
5320550 0.27470119732899273 -0.9434285065201948
5340350 0.27019535117383114 -0.9444398138847676
5360150 0.2656081091859173 -0.9459019085497956
5379850 0.26099147905707853 -0.9473595102369936
5399650 0.2566185193172766 -0.9487972187196182
5419450 0.25188111042746825 -0.9500222693553761
5439250 0.24714521468101636 -0.9514866192135298
5458950 0.2423582835461175 -0.9527750669584719
5478750 0.23730798554440544 -0.9537914969385942
5498550 0.23256473810099276 -0.9547163179226029
5518350 0.22777479326585223 -0.9565137667965443
5538050 0.22270471819450216 -0.9576300057058511
5557850 0.21793642667217472 -0.9588020636680133
5577650 0.21324888797875896 -0.9593863967386461
5597450 0.208350226436095 -0.9604419996734281
5617150 0.2031882018774999 -0.962022240763221
5636950 0.19892051851817372 -0.9626087123789421
5656750 0.19360942624141098 -0.9635035044083575
5676550 0.1884707369827923 -0.9647214061665713
5696250 0.18377959305536448 -0.9656339013963117
5716050 0.17924388420858123 -0.9661016768586499
5735850 0.17404676828401688 -0.9670987462848045
5755650 0.16883597268670528 -0.9677649517653323
5775350 0.16406294691928835 -0.9679877926520927
5795150 0.1590337353514322 -0.9693815116777745
5814950 0.15431855966848163 -0.9701794233056056
5834750 0.1490321215046726 -0.9708721439348034
5854450 0.14402079393518882 -0.9716989183820843
5874250 0.13924542418486457 -0.9721736405844688
5894050 0.1342221336117864 -0.9728251424809584
5913850 0.12904349202009688 -0.9734348541240412
5933550 0.12405377608889427 -0.9736258612091548
5953350 0.11904184629541689 -0.9743998440610764
5973150 0.11455422406012174 -0.9748216528275916
5992950 0.1090545420603594 -0.9755674504073386
6012650 0.10450645716171472 -0.9756236634101358
6032450 0.09886160179264067 -0.9759406757939166
6052250 0.09413206123964712 -0.9765973781972302
6072050 0.08924833309451399 -0.9768953153512575
6091825 0.0838069016781299 -0.9774871532840343
6111525 0.07946400971002678 -0.9780341829874474
6131325 0.07460571487609355 -0.9781011336163025
6151125 0.0689467072398352 -0.9783126240399103
6170925 0.06381229780397274 -0.9785796682479654
6190625 0.058766668726212626 -0.9787145644717031
6210425 0.053835915913998944 -0.9791985225200387
6230225 0.04832041626718413 -0.9791796405711729
6250025 0.043407713092583775 -0.979976835357824
6269725 0.038325374208396074 -0.9793647374265771
6289525 0.03327921997944878 -0.9799316444170586
6309325 0.02788829652658569 -0.9796941012990936
6329125 0.022694105943598938 -0.9793023332512307
6348825 0.017746548896449187 -0.9792115046288646
6368625 0.011351125736508722 -0.9793776531245093
6388425 0.006160853120081764 -0.9795839400602918
6408225 0.0012051746601405673 -0.9792631270555898
6427925 -0.004069029436733049 -0.978396964962042
6447725 -0.00902312793187208 -0.9784866882892577
6467525 -0.014384797900934531 -0.9783198578593909
6487325 -0.019429747558311443 -0.9779237130634895
6507025 -0.02459518053848798 -0.9776584806465305
6526825 -0.02953728000282215 -0.9770764416652912
6546625 -0.03486769883851379 -0.9768978866206448
6566425 -0.03961968603128296 -0.9764273340666271
6586125 -0.04465768721622374 -0.9762660898741453
6605925 -0.04983834690772534 -0.9756902407959207
6625725 -0.055133730727382355 -0.9758956575852238
6645525 -0.06009083746997714 -0.9750766761875276
6665225 -0.06517574526240014 -0.9750290769368891
6685025 -0.07034326756520892 -0.973942572642306
6704825 -0.07519025157942434 -0.9734316464970835
6724625 -0.08067865130437392 -0.9732120222816709
6744325 -0.08563464929077481 -0.9721184688425135
6764125 -0.09057910017805942 -0.9719182991212445
6783925 -0.09613124631316286 -0.9709840590068289
6803725 -0.10121131936108027 -0.9704236582233398
6823425 -0.1057593920330417 -0.969526129568326
6843225 -0.11180057348727994 -0.9684545808885159
6863025 -0.11691404383626514 -0.9681737578232922
6882825 -0.12154296344578022 -0.9670854844014386
6902525 -0.12663784977195397 -0.9661353821464224
6922325 -0.13206054456221608 -0.965405930131996
6942125 -0.13698755061762938 -0.9643529878911348
6961925 -0.1420531744234844 -0.9635984757684177
6981625 -0.14732705767817972 -0.9624664801292041
7001425 -0.1528027514238883 -0.9613457403919577
7021225 -0.15771230318213583 -0.9602322045307938
7041025 -0.1624597049091623 -0.9590374926282285
7060725 -0.16810937161209213 -0.9574626523209011
7080525 -0.17307579404925982 -0.9562466779453281
7100325 -0.17786128784829008 -0.955199117503823
7120125 -0.18304822549852667 -0.9533420479788558
7139825 -0.18801572445427864 -0.952664729976061
7159625 -0.19302376166268387 -0.9507702807275117
7179425 -0.1975877025605757 -0.9493257830864827
7199225 -0.2024159067696803 -0.9476249064406788
7218925 -0.20718097304729938 -0.9462051767466253
7238725 -0.212084488924841 -0.9450133987362269
7258525 -0.2165675595239044 -0.9433064355251936
7278325 -0.22112461123152174 -0.9424270859630767
7298025 -0.2259727573083991 -0.9408063418350165
7317825 -0.2309931103833318 -0.9399094674110057
7337625 -0.23557024105313049 -0.9382429354612152
7357425 -0.24009257184555852 -0.9376188808126371
7377125 -0.24513950915904362 -0.9360592706282119
7396925 -0.24987927702861223 -0.935028069346841
7416725 -0.25491930869110446 -0.9338907978206553
7436525 -0.2595112895757599 -0.9323819429919261
7456225 -0.26490654453530554 -0.9311422298953083
7476025 -0.26989478036158465 -0.929395979015043
7495825 -0.27466368650710976 -0.9285244256602612
7515625 -0.2801628755934663 -0.9264466192226969
7535325 -0.284667651966663 -0.9249673922398051
7555125 -0.29003364428154876 -0.9235135245085133
7574925 -0.295221797308173 -0.9215007207230886
7594725 -0.30027306135579074 -0.9202505120081454
7614425 -0.30524425822752754 -0.9183479016860682
7634225 -0.3103884601148599 -0.9160567701437238
7654025 -0.31534215919791037 -0.9147100127883472
7673825 -0.32044121250690044 -0.9126995585758501
7693525 -0.3256240137667429 -0.9111115445949907
7713325 -0.3303952693380223 -0.9091755083103049
7733125 -0.3352167318845754 -0.907115461804133
7752925 -0.34016540261351585 -0.9049115355217896
7772625 -0.34528555180391574 -0.9029659561287787
7792425 -0.35023130413852654 -0.9010106101897506
7812225 -0.3552479615596553 -0.8988749264964129
7832025 -0.3603178855145656 -0.8965574288135416
7851725 -0.36489132739792873 -0.8949813266807126
7871525 -0.3703147346789623 -0.892287991844972
7891325 -0.37534543769746637 -0.8901238653122452
7911125 -0.38035022222847137 -0.8879180769044209
7930825 -0.3850970921450583 -0.885662915437559
7950625 -0.3896240775338268 -0.8832718679584337
7970425 -0.3951154918311698 -0.8812956708343366
7990225 -0.4000812368964128 -0.8785094182841038
8009925 -0.4046262911828197 -0.8761993209097149
8029725 -0.40981972720571946 -0.8734699095059102
8049525 -0.413981795482513 -0.8710690471571598
8069325 -0.41942730638838877 -0.8689359083293104
8089100 -0.4241079897313237 -0.8660344743667449
8108800 -0.429064864566657 -0.8636705578783147
8128600 -0.4342923146345422 -0.861007460557318
8148400 -0.43869537582143986 -0.8582009185199412
8168200 -0.44372002655338877 -0.8558036258167071
8187900 -0.44838501576352124 -0.853008508213377
8207700 -0.45350890653123344 -0.8504201737426108
8227500 -0.45816262519146034 -0.8473590204652625
8247300 -0.46322776961464723 -0.8441365677199512
8267000 -0.4680508924486762 -0.841855196776507
8286800 -0.4727863691791359 -0.8388242179678261
8306600 -0.47751310612027265 -0.8359921676427462
8326400 -0.48231469835469837 -0.8327968392295373
8346100 -0.48694531468534574 -0.8297620830060096
8365900 -0.4916279820770948 -0.8266763555076272
8385700 -0.4966696821456772 -0.8238929706968974
8405500 -0.5011305699518638 -0.8207243670262448
