# Hz S RI R 50
100000 0.997476681581863 -0.024371704001259403
119700 0.9833611736530471 -0.1671661422933402
139500 0.9485733275093421 -0.3044740191297261
159300 0.8945923382657001 -0.43635739163820436
179100 0.8213292671880809 -0.559786918587915
198800 0.729674985865032 -0.6730273662056183
218600 0.6199222806410319 -0.7728857047566174
238400 0.493086608519879 -0.857118754848717
258200 0.347863634003595 -0.9205728243536081
277900 0.2021305628507239 -0.9557044076749343
297700 0.03309409761996473 -0.9767993232952766
317500 -0.1494909635654461 -0.9612081477712672
337300 -0.3193754397716432 -0.8851632910739646
357000 -0.5020498038116318 -0.80450762767164
376800 -0.6870997558299929 -0.6388393766597763
396600 -0.8343745138014754 -0.34727878816294944
416400 -0.7424892352909614 0.17634369265831928
436100 0.1189233378511664 -0.11877416697289997
455900 -0.5922874370649783 -0.382295510103816
475700 -0.7561891088224826 0.11867846830820186
495500 -0.42897618392168785 0.5804985427909823
515200 0.2924579131614978 0.583884112121607
535000 0.47976091259113574 -0.08100820870600516
554800 0.22390180850698146 -0.34684838928410033
574600 -0.0030680091970708974 -0.7127284345838334
594300 -0.5231268683326964 -0.5453540505761421
614100 -0.7007377540208413 -0.11666470104020808
633900 -0.5038689149991681 0.3351013033134404
653700 0.10402771195845913 0.422534416693718
673400 0.3416055226519695 -0.2356830025284613
693200 -0.16697872967688274 -0.503562818005397
713000 -0.39833226019873885 -0.15716592163297452
732800 -0.20604560041069686 -0.3284717558678516
752500 -0.665028126109858 -0.2545362743548786
772300 -0.7420091876196908 0.16754444602153082
792100 -0.5284561330199223 0.5136895870276458
811900 -0.09859115397278592 0.6545264388303511
831600 0.37547554528667576 0.3751887570906765
851400 0.32962871623814 -0.2685468901893772
871200 -0.25088293883929563 -0.39783501702772145
891000 -0.45736111744651764 -0.10159416111003075
910700 -0.5718054674697843 0.10024881756015823
930500 -0.5160323179681418 0.45452059524700933
950300 -0.20388940697534558 0.6867673056858876
970100 0.2072564297856607 0.6590733946190828
989800 0.5216605847222223 0.342034947234282
1009600 0.5103875001937122 -0.15759265188009608
1029400 0.04468417421086408 -0.4516224790507803
1049200 -0.39241594777501776 -0.20262759307142297
1068900 -0.39392696425867063 0.24034583885402497
1088700 -0.04049332944057461 0.37414159526699464
1108500 -0.11133405313851488 0.18626732346009992
1128300 0.02799739226766182 0.5243608578221903
1148000 0.467630009117985 0.4005663965747247
1167800 0.6214592028535804 -0.051659271039321025
1187600 0.35158689403917326 -0.47483754953728197
1207400 -0.15451363816720334 -0.499329430057469
1227100 -0.3663780539250399 -0.12454086635323243
1246900 -0.31379606402554616 0.01135739548428443
1266700 -0.33724214384818074 0.31253248265407624
1286500 0.032149062628422216 0.5283870309434682
1306200 0.43649206529893225 0.3534065444066797
1326000 0.5925891554497531 -0.08745762436319915
1345800 0.34330495899372027 -0.5195160494142526
1365600 -0.1432310772453146 -0.6167037023591083
1385300 -0.5353509142312994 -0.3397017426637081
1405100 -0.6080101959012841 0.11499853601344652
1424900 -0.3376773246158859 0.47045962695347265
1444700 0.10625824267722461 0.4694169925379287
1464400 0.19897290971574774 0.11830272050361282
1484200 0.2017374897882639 0.18343335659833268
1504000 0.36010249097264846 -0.15034896803212236
1523800 -0.002303584448980678 -0.44757128588702744
1543500 -0.4222002805723382 -0.2435235677773458
1563300 -0.4377444383157895 0.16847708109474266
1583100 -0.17904071112379183 0.2653616913723526
1602900 -0.25092273996232617 0.2830564187177357
1622600 -0.035234629840700186 0.5492336700087563
1642400 0.3618078224133937 0.45407090633051955
1662200 0.5487017147433277 0.05918577933380789
1682000 0.34466499883029605 -0.37182585010756025
1701700 -0.15502140526140779 -0.4689487298424543
1721500 -0.5159509278019463 -0.1220592667547776
1741300 -0.45829517482103205 0.327746604255758
1761100 -0.12397030908679911 0.42477507864909575
1780800 -0.13805480719114327 0.6229160387062008
1800600 0.274761294672966 0.6272810083008664
1820400 0.5061072820492668 0.41371506287726756
1840200 0.5992997799113984 0.12983511694464234
1859900 0.4829636622167751 -0.18594035172056542
1879700 0.11702526529025128 -0.30925693996267817
1899500 -0.18914547161563183 -0.006860625476809021
1919300 -0.015084091569032393 0.395466596494026
1939000 0.3806755094562309 0.41649009270622117
1958800 0.5930207775312628 0.15044577492715963
1978600 0.48762094296734954 -0.09817963887157986
1998400 0.48360816455547917 -0.022459564097540085
2018100 0.5887227477303876 -0.2625532611691685
2037900 0.41231377706668954 -0.5112839532084138
2057700 0.08442674645347938 -0.5732516698550351
2077500 -0.22163930750436725 -0.33200086238283133
2097275 0.8739711212051475 -0.4776847802520804
2116975 0.8714788031310203 -0.48180492335169156
2136775 0.869118566896485 -0.48580646949292594
2156575 0.8667205383096148 -0.4900654135839462
2176375 0.8645724053736703 -0.4942934801877541
2196075 0.8622214653167924 -0.49836221876545383
2215875 0.8597785036116838 -0.5023052281134073
2235675 0.8572399427029559 -0.5064495721962525
2255475 0.8548883805263536 -0.5106961846302284
2275175 0.8522114950868447 -0.514548943058046
2294975 0.8496609147198418 -0.5187536558624897
2314775 0.8470350522352903 -0.5226839475284605
2334575 0.8449994000246182 -0.5265869558177514
2354275 0.8419292576405615 -0.5312213789532662
2374075 0.8391142604815617 -0.5348076624781952
2393875 0.8365742492604505 -0.5389850291263147
2413675 0.8341547463640562 -0.542642354394432
2433375 0.8315307761998577 -0.546813376191742
2453175 0.8289216472727707 -0.5508436562741741
2472975 0.8260797520483275 -0.5547400615312138
2492775 0.8234948770096642 -0.5587108545862425
2512475 0.8208677585452125 -0.5628780883984043
2532275 0.8177918510709609 -0.5663291898270705
2552075 0.8153287654404436 -0.5704409639892963
2571875 0.8123107755169344 -0.5745475085000579
2591575 0.809555692960579 -0.5785021005837266
2611375 0.8066692682236063 -0.5821530656957892
2631175 0.8038819602468785 -0.5859120880236336
2650975 0.8008451834103838 -0.5897252438455751
2670675 0.798135008134761 -0.5937331027977191
2690475 0.7949034530563571 -0.5977658913694698
2710275 0.792190883888001 -0.6012321006371046
2730075 0.7889078681368519 -0.6052785146569023
2749775 0.7862680518320802 -0.6084794108815106
2769575 0.7834394265140207 -0.6126669430109548
2789375 0.7799894511707884 -0.6163805492951281
2809175 0.7771119636719043 -0.6201451880606369
2828875 0.7742697852230089 -0.6237569873236749
2848675 0.7708881257673177 -0.627793707598295
2868475 0.7678720036744937 -0.6315615020215188
2888275 0.7652287990089187 -0.6352512048857977
2907975 0.7616743315878918 -0.6387789858439958
2927775 0.7585003811939187 -0.6424621671419724
2947575 0.7553195182265398 -0.6462390826085658
2967375 0.7522415329408727 -0.6499143602118451
2987075 0.7488877773813614 -0.6536431821289704
3006875 0.7456611459736318 -0.6572855776880596
3026675 0.7424252380865406 -0.6607878569769899
3046475 0.7390333984894605 -0.6642788214854727
3066175 0.7356160535136297 -0.6679087553755428
3085975 0.7322979955072108 -0.6714074809296376
3105775 0.7289988456244784 -0.6749869826697696
3125575 0.7257701778540697 -0.678409732384745
3145275 0.7222386085996338 -0.6819813805983725
3165075 0.7191487749242511 -0.6855467455012669
3184875 0.7154417546687388 -0.6892376572874964
3204675 0.7117352558287845 -0.6925925672469312
3224375 0.7087484514218926 -0.6961515137086887
3244175 0.705293076096355 -0.6991482649241665
3263975 0.7017073338631843 -0.7031162787433789
3283775 0.6982982570567958 -0.7061229577834863
3303475 0.6947817985248406 -0.709357578111101
3323275 0.6910288376566133 -0.7127370462862408
3343075 0.6876882643335624 -0.7162528566387036
3362875 0.6837410781381608 -0.7198017360381029
3382575 0.6801906074341739 -0.72306975071043
3402375 0.6766795362218252 -0.7262864304020449
3422175 0.67307007730696 -0.7299997536434212
3441975 0.6697100391131762 -0.7328099707467628
3461675 0.6657554435119392 -0.7360184165578362
3481475 0.6621851981261321 -0.7391710788783336
3501275 0.6583417200135944 -0.7427435041303051
3521075 0.6544275565508018 -0.7459278024331287
3540775 0.6507603042880016 -0.7491944905183163
3560575 0.6470061825305 -0.7522437854485916
3580375 0.643204469929753 -0.7554695374797495
3600175 0.6392533264080034 -0.7587916547597923
3619875 0.6354510532187553 -0.7613441409762758
3639675 0.6316347040060393 -0.7646988027542576
3659475 0.6280082565597361 -0.7678659789311763
3679275 0.6239134798518962 -0.7709476382244039
3698975 0.6200865009998876 -0.774118926438289
3718775 0.6158232698169978 -0.7774628341396435
3738575 0.6121509015216646 -0.7802687423261748
3758375 0.6079597138707684 -0.7830138669008598
3778075 0.6040569573690093 -0.7860928230922817
3797875 0.60027091237437 -0.7891509863935509
3817675 0.59636735478606 -0.792240055552626
3837475 0.5918896387933068 -0.7948434799123137
3857175 0.5878845063208429 -0.7981588265515509
3876975 0.5838269064431271 -0.8010070159012495
3896775 0.5795302119055408 -0.8036607591945752
3916575 0.5756992626861901 -0.8063966908126381
3936275 0.5719358254362591 -0.8093629707813456
3956075 0.5672613997568663 -0.8123904786520418
3975875 0.5632442737618928 -0.8151214666688128
3995675 0.5589267341594338 -0.8176521011784061
4015375 0.5547182459397987 -0.8206920642705554
4035175 0.5504620289599484 -0.8235781343877628
4054975 0.5462907579374535 -0.82628037512339
4074775 0.5420388101189081 -0.8288916350303985
4094550 0.5376185593834842 -0.8316848524664482
4114250 0.5337798683862663 -0.8341627699300487
4134050 0.5289527210429623 -0.8366345415977494
4153850 0.5247548479291073 -0.8394265326336929
4173650 0.5203375186753734 -0.8420967223086058
4193350 0.5161646296629178 -0.8444455214919968
4213150 0.5113470387502588 -0.8471841999286908
4232950 0.5071452990887074 -0.8498147016918072
4252750 0.5027996204352895 -0.8521078070310663
4272450 0.49848293124599535 -0.8545088707817229
4292250 0.4939034096233808 -0.8572561026019825
4312050 0.4892637325007663 -0.859563794526044
4331850 0.4847758804162049 -0.8620219366189942
4351550 0.4803354448899 -0.8643264111940677
4371350 0.4759241619299773 -0.8669640187638389
4391150 0.47130209042861054 -0.8689387951309957
4410950 0.4664093741064443 -0.8716696972501157
4430650 0.461966644186162 -0.8738645629822781
4450450 0.4573753202610332 -0.8764647231364052
4470250 0.45258959971804413 -0.8785718211822847
4490050 0.4479066057335019 -0.881122952916774
4509750 0.4431258822320233 -0.8830865965976851
4529550 0.4385402817242484 -0.8854133066270853
4549350 0.433986465397993 -0.8874497788077873
4569150 0.42959867486895476 -0.8896767724937704
4588850 0.4241297271956748 -0.8916785376848005
4608650 0.4197978086996361 -0.8939913749107383
4628450 0.4149398032997882 -0.89610545618543
4648250 0.4099555435463753 -0.8982104199843985
4667950 0.4052092820920639 -0.90009223156995
4687750 0.4005902328198005 -0.9022381100830401
4707550 0.3955660765248003 -0.904904515650184
4727350 0.3904291612686482 -0.906467296010481
4747050 0.38538400926372557 -0.9081007204516375
4766850 0.3806161261374017 -0.9102362160849131
4786650 0.3755784317792749 -0.9118337666395727
4806450 0.3703746579548025 -0.9134894460005092
4826150 0.36567014564716155 -0.9154554291379948
4845950 0.3601441058583278 -0.9171911881406781
4865750 0.3550256899432995 -0.9189513038128042
4885550 0.3502432177062254 -0.9205499092398267
4905250 0.34482233873255147 -0.9224656700582186
4925050 0.33960774224499884 -0.9237925822067113
4944850 0.33450785349731105 -0.9254658226986923
4964650 0.3286613374665225 -0.9270030196859743
4984350 0.32367029263292174 -0.9282569601552487
5004150 0.3184313861287387 -0.929787267880938
5023950 0.3126615643782156 -0.9311677928765083
5043750 0.30780083668670505 -0.9322516820981911
5063450 0.3023776070800092 -0.9333769731304702
5083250 0.29637732331378647 -0.934366222141967
5103050 0.29120522323383646 -0.934636717569696
5122850 0.2859768666303999 -0.9351575771570446
5142550 0.28062243376828055 -0.9354449350516063
5162350 0.27540304618483435 -0.9355733476676656
5182150 0.2708136358406049 -0.9356963507933639
5201950 0.2665073923365195 -0.9358763176370201
5221650 0.26190593114651245 -0.9364329824293307
5241450 0.2582483206539156 -0.9364596531546948
5261250 0.2544559896336694 -0.9369676712443415
5281050 0.2505283874504785 -0.937866331847088
5300750 0.2467757403823305 -0.9391396683974225
5320550 0.24330642116561177 -0.9409157674118811
5340350 0.23941063481417282 -0.9424273271389187
5360150 0.23496404225979717 -0.9440542916681082
5379850 0.23040968972886858 -0.9463754939218144
5399650 0.22599392038449112 -0.9484723354509669
5419450 0.2210109552349775 -0.9501847506300535
5439250 0.21590865147828328 -0.9521694856917847
5458950 0.2110658562159427 -0.9536151143101004
5478750 0.20559260104775004 -0.9552044458076312
5498550 0.20001932304984607 -0.956350933993974
5518350 0.19497342788849986 -0.9583850919347384
5538050 0.1892027985161883 -0.9597171993481173
5557850 0.1839288293499002 -0.961169589781605
5577650 0.17864298627393793 -0.9617454969681901
5597450 0.172923590505895 -0.9629815038751464
5617150 0.16741930653802015 -0.9646539975773651
5636950 0.1623925870084573 -0.9652991888560728
5656750 0.1564313631629033 -0.9662865390849975
5676550 0.15062019504940613 -0.9674739381942169
5696250 0.1451844056595356 -0.9683324357013163
5716050 0.14004153946990922 -0.9688835593147348
5735850 0.1341118024970198 -0.9699518792601854
5755650 0.12840600436450664 -0.9703883506045081
5775350 0.12292457652414564 -0.9706121610347523
5795150 0.11711303700027134 -0.9717996796167246
5814950 0.11175157704341983 -0.9725176638984778
5834750 0.10574069069469294 -0.9732079580486198
5854450 0.10025788709538455 -0.9738175594054405
5874250 0.09451981554906828 -0.9741693950953841
5894050 0.08888959558743216 -0.9746006590581511
5913850 0.08310297567542262 -0.9751278033049573
5933550 0.07722371785221593 -0.9751652774830282
5953350 0.07162936025826472 -0.9756574093635892
5973150 0.06648020668364954 -0.9760043970501346
5992950 0.06014350962827541 -0.9764206548856077
6012650 0.05466913511218806 -0.9761190672637822
6032450 0.04836697304185903 -0.9762405374437052
6052250 0.04290561523240162 -0.9766663623558581
6072050 0.037243044978489605 -0.9768353440847782
6091825 0.031039669977926253 -0.9771677357637877
6111525 0.025902721798913175 -0.9772314680586264
6131325 0.020353558846439416 -0.9772372894260849
6151125 0.0139552159919718 -0.9772682030061219
6170925 0.008045478302183771 -0.97701975590817
6190625 0.0019808620219426425 -0.9769691474249772
6210425 -0.0036187547327576255 -0.9768161165481748
6230225 -0.009922465054920606 -0.976529584422351
6250025 -0.015754907094110135 -0.9770024735322795
6269725 -0.02169109731579357 -0.976031605700792
6289525 -0.027591549165710615 -0.9762568651007161
6309325 -0.03359561400912783 -0.9755653158656419
6329125 -0.0396042298796453 -0.9750253626510449
6348825 -0.04545524243121654 -0.9742508882275651
6368625 -0.052541594056520376 -0.9738132606222154
6388425 -0.05896298092351565 -0.9737884525470362
6408225 -0.06467061984260669 -0.9727831928938211
6427925 -0.07076402981748106 -0.9713666521231542
6447725 -0.07679359387946576 -0.9708790892984099
6467525 -0.08284175980868795 -0.9700395890787915
6487325 -0.08923457966789594 -0.9693325754929123
6507025 -0.09514178471139013 -0.9684312293297243
6526825 -0.10073104392817848 -0.9673732139997226
6546625 -0.10704524658518004 -0.966589101183114
6566425 -0.11276326342939658 -0.9654709944504991
6586125 -0.11874330803269693 -0.9647818926805499
6605925 -0.1251157917759524 -0.9634408626211214
6625725 -0.13137937562586388 -0.962810493380057
6645525 -0.13734399457902693 -0.9613529832691777
6665225 -0.14352102997166197 -0.960443401143227
6685025 -0.1495485288115052 -0.9588976334332715
6704825 -0.15550642931127046 -0.9575424906729032
6724625 -0.16214041971839085 -0.9563274754167366
6744325 -0.16801513620354003 -0.9544582200856143
6764125 -0.17429686695644164 -0.9533035850573606
6783925 -0.18068616742897775 -0.951608694374466
6803725 -0.1868870725474253 -0.9500776619938862
6823425 -0.19257546323284416 -0.9482564355029397
6843225 -0.1996398078634812 -0.9458447427089229
6863025 -0.20608723417354607 -0.944594700409227
6882825 -0.21158512004858065 -0.942345346931816
6902525 -0.21795483516105246 -0.9402263191480137
6922325 -0.22454118562466874 -0.9380857879593368
6942125 -0.23058672165492608 -0.9355560077657605
6961925 -0.2366011721047334 -0.9334501394071464
6981625 -0.24278883789673886 -0.9307362667109851
7001425 -0.2495412006132047 -0.9281066222823984
7021225 -0.2553743665232528 -0.9252720799003143
7041025 -0.2609406759694964 -0.9222394838225245
7060725 -0.2675686625803282 -0.9190358807817207
7080525 -0.27303780237846587 -0.9157442919279767
7100325 -0.27845265385471996 -0.9129031143693371
7120125 -0.283970877437668 -0.9087776045848333
7139825 -0.28936839792542995 -0.9058452607633064
7159625 -0.2942018071232076 -0.9018892264578676
7179425 -0.2984589563186095 -0.8985703857640062
7199225 -0.30273964325505986 -0.8949354373836264
7218925 -0.30671586030449655 -0.8917999121604575
7238725 -0.31084933908529444 -0.8892262864367423
7258525 -0.31435263758244025 -0.8864025452643561
7278325 -0.3179806879278327 -0.8849708637558962
7298025 -0.32188532802258324 -0.883004799067067
7317825 -0.326433336214924 -0.8820544995850811
7337625 -0.33104466941127825 -0.8805462957228571
7357425 -0.3357854460311721 -0.8802647619590916
7377125 -0.34106417334997513 -0.8788180117867954
7396925 -0.34674023455269537 -0.8777354320061702
7416725 -0.3527302504548359 -0.8765508202264858
7436525 -0.358321917492726 -0.8749267809085585
7456225 -0.36505436641147027 -0.8731667663666709
7476025 -0.3709780193119446 -0.8708036791888248
7495825 -0.3775042409773748 -0.8689366455829053
7515625 -0.3841868378339787 -0.8665875886274182
7535325 -0.3898564915216925 -0.8641757377768691
7555125 -0.3965956474235555 -0.8615487961010438
7574925 -0.40293370390690997 -0.858600809579447
7594725 -0.4092697753170948 -0.8558229014432278
7614425 -0.41587521338647565 -0.8528977764288058
7634225 -0.42211297534102715 -0.8494876477906301
7654025 -0.42842942862101113 -0.8468315518010213
7673825 -0.4347938555140426 -0.8433716128160773
7693525 -0.44123115457084194 -0.8402359283170752
7713325 -0.4473399199660038 -0.8367173064349887
7733125 -0.45331063965921453 -0.8330384109140695
7752925 -0.45954216055360947 -0.8294416732396602
7772625 -0.4657568860174559 -0.8258391156830901
7792425 -0.4719110509954671 -0.8223425384523243
7812225 -0.47814325253395545 -0.8183109242866584
7832025 -0.48441291482691345 -0.8143453427924783
7851725 -0.49033106234386475 -0.8112005645905548
7871525 -0.4968300222743241 -0.8066880083737298
7891325 -0.5030409896099232 -0.802838948329152
7911125 -0.5092755883532025 -0.7987005559739752
7930825 -0.5154743909084616 -0.794408551910233
7950625 -0.5212944606177642 -0.7901313658407974
7970425 -0.5279823319768431 -0.78602599602064
7990225 -0.5339339140227809 -0.7812866000519054
8009925 -0.5401317306935545 -0.7767262535982862
8029725 -0.5465219588662059 -0.7717229627488337
8049525 -0.5522169249794516 -0.76719794411941
8069325 -0.5588587163464037 -0.7627403152987042
8089100 -0.5646900645452982 -0.757537246132552
8108800 -0.5711594447997593 -0.7526387092890331
8128600 -0.5774042090530327 -0.7475227949071861
8148400 -0.5831180817465773 -0.7423039687311801
8168200 -0.5893770304227 -0.737248756168936
8187900 -0.5953061259487148 -0.7318871885014663
8207700 -0.6017850817028462 -0.7264503478715649
8227500 -0.607947019429092 -0.7211362591313171
8247300 -0.6139518087219223 -0.7148689481543957
8267000 -0.6200393445736221 -0.7097953075084845
8286800 -0.6260167627662971 -0.7035619946318428
8306600 -0.6320340617047642 -0.6977352079138137
8326400 -0.6382916812398719 -0.6914789648968847
8346100 -0.6442362994139629 -0.6852820893220033
8365900 -0.6500736325033596 -0.678799717784043
8385700 -0.656261396476035 -0.6725933735461508
