# Hz S RI R 50
100000 0.9985026031062537 -0.024433853066802815
119700 0.9970179533143002 -0.02854442335931347
139500 0.9971222502835522 -0.033335712469258705
159300 0.9971106454674148 -0.03780363345083156
179100 0.9967438061036307 -0.04266275630558296
198800 0.9965991923607089 -0.047305864114731824
218600 0.9961060143622527 -0.05196018206891747
238400 0.99618208815702 -0.056567423589717836
258200 0.9957489542735473 -0.061294785518152956
277900 0.9953606818745759 -0.06573432948200988
297700 0.9951208644210977 -0.07047439291013775
317500 0.9948286932210323 -0.07509265497333242
337300 0.9942886735326987 -0.07990432915333252
357000 0.9941369332898743 -0.08457926444542554
376800 0.9935929188619813 -0.08930612236075146
396600 0.9931873707624556 -0.09399792035213396
416400 0.9924973266575868 -0.09867775872608824
436100 0.9921653684163144 -0.10334243366680272
455900 0.991588728178087 -0.1079345136370621
475700 0.9909932986542722 -0.11271167052201041
495500 0.990681865771964 -0.11715705331971396
515200 0.9899832403190819 -0.12203244739999344
535000 0.989405222954844 -0.12647014488845587
554800 0.9890366656321807 -0.1311444344407109
574600 0.9882505657472785 -0.1357952938876229
594300 0.9873713505217204 -0.14040680479413095
614100 0.9867934887181038 -0.14503341626875843
633900 0.9862840383520046 -0.14971014451437512
653700 0.9856260620338566 -0.15445036624850925
673400 0.9849005902956709 -0.15902124320934283
693200 0.983888308817496 -0.16323870441503285
713000 0.9833092078628536 -0.16834023383529986
732800 0.9823243356611835 -0.1726543051020301
752500 0.9816941047753386 -0.17734743096070507
772300 0.9805996600018608 -0.18204175197585715
792100 0.9799844536978677 -0.18696761576270096
811900 0.978963895702986 -0.19118264829477244
831600 0.9779829259103271 -0.19552806064438952
851400 0.9773454298687375 -0.20038724006267747
871200 0.9757653420121456 -0.20490743032310257
891000 0.9748866517914082 -0.20968923175152013
910700 0.9739930093581604 -0.21432461842484496
930500 0.9731911975664382 -0.21890553528380166
950300 0.9720368197146612 -0.22337633454231706
970100 0.9709057062942936 -0.22790113339921594
989800 0.9698712998061807 -0.23235002296510524
1009600 0.9686240400806966 -0.23711509570505546
1029400 0.9673643323746196 -0.2418036828866116
1049200 0.966600485497907 -0.24593267029992996
1068900 0.9652277701758292 -0.2508393947170222
1088700 0.9637534565302492 -0.2554592663329998
1108500 0.9628934473767039 -0.25967417755423045
1128300 0.9614633581976068 -0.2643855257106162
1148000 0.9600784760831759 -0.26887939685150253
1167800 0.958864501779537 -0.2733825811573101
1187600 0.957330753559766 -0.2778781539954132
1207400 0.9561200447607489 -0.2827643297108577
1227100 0.9547035225373943 -0.28684598669502315
1246900 0.9532247223969615 -0.29149498820077363
1266700 0.9517443935283205 -0.2957403431822714
1286500 0.9505555102490785 -0.30064480216457795
1306200 0.9489918789807158 -0.30506489158085015
1326000 0.9479883115587928 -0.3092497620599877
1345800 0.9461326068863497 -0.3143855456916948
1365600 0.9444519638641593 -0.31840224669699524
1385300 0.9429701906782479 -0.3230651864479777
1405100 0.9414838559469927 -0.3273262707083236
1424900 0.9396770018329309 -0.3318284465746284
1444700 0.9381128730698423 -0.33631919585795583
1464400 0.9367260727187009 -0.3408382769403113
1484200 0.9351214301994383 -0.345325583437415
1504000 0.9333080347980615 -0.3496546003588325
1523800 0.9317036597619875 -0.35381067088111157
1543500 0.9298984762528402 -0.3585560159660855
1563300 0.928082114757708 -0.3629729602054674
1583100 0.9266104035206416 -0.3674774033517122
1602900 0.9242312668523891 -0.3717976805376206
1622600 0.922422081714083 -0.37622518064249016
1642400 0.920802376763063 -0.3805895413786383
1662200 0.9193118881347034 -0.3851692201747135
1682000 0.9169718838272858 -0.38936050613039136
1701700 0.9154786183975493 -0.39396530520921397
1721500 0.9133081889821124 -0.3982041867625905
1741300 0.9115407644682733 -0.4025220316544786
1761100 0.9095638423421838 -0.4069753858117038
1780800 0.9077064152329231 -0.41116034305837224
1800600 0.9057389044163768 -0.41565366949938476
1820400 0.9033992312017505 -0.4198890768184633
1840200 0.9013433115121587 -0.42406438294907634
1859900 0.8991853951946336 -0.42878832326430827
1879700 0.8972823232955826 -0.43278924100181054
1899500 0.895079755947716 -0.43723241852458244
1919300 0.8929393619530357 -0.4414657510045859
1939000 0.8909242466071103 -0.4459288950366874
1958800 0.8887700726580392 -0.4500837709191766
1978600 0.8866552178329673 -0.45447333049597954
1998400 0.8842429770405608 -0.45857517578854107
2018100 0.8819372773890695 -0.4627948524908557
2037900 0.8798106780152539 -0.4669154484497875
2057700 0.8773808244037353 -0.4712705148988873
2077500 0.8750054774544327 -0.4755009029984331
2097275 0.8728733710730716 -0.47994464907246887
2116975 0.8703766302890562 -0.4840364635748064
2136775 0.8678501815682482 -0.48807383612010413
2156575 0.8654909944740637 -0.49242458375585174
2176375 0.8630295859743113 -0.49659480446017995
2196075 0.8606621239235627 -0.5008234838626737
2215875 0.8583817276622041 -0.504770073154803
2235675 0.8557371789620859 -0.5090854682956926
2255475 0.8530476065049605 -0.5133540727356253
2275175 0.8505289260658996 -0.5173331930948678
2294975 0.8477666627564483 -0.521334889947361
2314775 0.8451711039436814 -0.525550469628827
2334575 0.84294918886536 -0.5296626658778137
2354275 0.8402160048412144 -0.5340541062352
2374075 0.8370970629478234 -0.537873603130505
2393875 0.8347147093918832 -0.5420542557526838
2413675 0.8321959872642736 -0.5459666984790201
2433375 0.8293700825035104 -0.5501439673099807
2453175 0.8265990198092822 -0.5541401027576488
2472975 0.8238295837245575 -0.5580003210788742
2492775 0.8208222495122783 -0.5621558733658393
2512475 0.8182729855084486 -0.5663581708490261
2532275 0.8152210103155216 -0.570103881589213
2552075 0.8126012839549697 -0.5743124387178513
2571875 0.8096199153654358 -0.5782597009477436
2591575 0.8065967582488088 -0.582414755287209
2611375 0.803668001848406 -0.5860921657858092
2631175 0.800897420602143 -0.5899488841079024
2650975 0.7976496419221987 -0.5937412325606659
2670675 0.7947731313269213 -0.5979961830826107
2690475 0.7914685053641163 -0.6020848485161622
2710275 0.7886570255937686 -0.6056800735715248
2730075 0.785190765586653 -0.6096027723269163
2749775 0.7823935424552604 -0.6131780371937499
2769575 0.7795374545291417 -0.6174177986697759
2789375 0.7762254453118215 -0.6212032874269945
2809175 0.7731436226124251 -0.6249494545394723
2828875 0.769980026833912 -0.6286547242143393
2848675 0.7667665562642852 -0.6328986265723289
2868475 0.763626416620992 -0.6366190233856878
2888275 0.7603728341921726 -0.6403879947560983
2907975 0.756812047137374 -0.6442245059657331
2927775 0.7534334552848991 -0.6478356737964823
2947575 0.7501806938713677 -0.6518416762632825
2967375 0.7470362525850368 -0.6555051685858022
2987075 0.7435787449170783 -0.6592296470837895
3006875 0.7400811961924568 -0.662979347752013
3026675 0.7369333337647579 -0.6668199645937141
3046475 0.7332839921136426 -0.6703548117854853
3066175 0.7296796150804244 -0.6738400760350882
3085975 0.7260992622948295 -0.6774494072654976
3105775 0.7226904694644755 -0.6812257220311085
3125575 0.719155190690406 -0.6846230502697385
3145275 0.7155652148997147 -0.6884363418914694
3165075 0.7123078579642015 -0.6922647099322806
3184875 0.7086006212006981 -0.6957994524240478
3204675 0.704460446448734 -0.6993164120170112
3224375 0.7010244836253801 -0.7028449568743339
3244175 0.6974268796294123 -0.705723131602298
3263975 0.6939788915133042 -0.7099574181857947
3283775 0.6901048973539857 -0.7131141531055508
3303475 0.6867520961552399 -0.7165193899104275
3323275 0.6828345241511182 -0.7201034389952713
3343075 0.6792758951906636 -0.7237385570437963
3362875 0.6750459834563773 -0.7272816788146343
3382575 0.6711673817764874 -0.7306369960847384
3402375 0.6676826672038955 -0.734187416466014
3422175 0.6637394358953733 -0.7374561774691218
3441975 0.6600037577966876 -0.7409012931839583
3461675 0.6561228656004793 -0.744221291933947
3481475 0.6522344270233077 -0.7474073824887144
3501275 0.648141598674771 -0.751171735263241
3521075 0.6438369273767476 -0.7541999332563771
3540775 0.6399571231187495 -0.7577716040390082
3560575 0.6358303955662127 -0.7610361708511263
3580375 0.6318604871812086 -0.7643519614426
3600175 0.6277925841859109 -0.7677236537403239
3619875 0.6236348261800694 -0.7705761199067911
3639675 0.619664354267426 -0.774058940969571
3659475 0.6155131288227522 -0.7772516633577026
3679275 0.611067334677383 -0.7806135225643901
3698975 0.6069543999348668 -0.7837758721794756
3718775 0.6021652188120418 -0.7871221528491799
3738575 0.5984765283957632 -0.7901944295713207
3758375 0.5938562057118437 -0.7931018642126446
3778075 0.5895564342285047 -0.7963489958270092
3797875 0.5855569032870921 -0.7993549904809473
3817675 0.5812722300172468 -0.8024416668634232
3837475 0.5762103512667623 -0.8053604081492706
3857175 0.5721727986500806 -0.808646189419176
3876975 0.5676063989314788 -0.8115589005003763
3896775 0.5629489266758189 -0.8146678921625962
3916575 0.5585372758064988 -0.8172683560963314
3936275 0.5544928965881158 -0.8203710167141529
3956075 0.5496023224576082 -0.8234996871670485
3975875 0.5452144091841234 -0.8262657740911693
3995675 0.5403950071022253 -0.8289462942959661
4015375 0.5357358317417531 -0.832309620427728
4035175 0.531019142296279 -0.8351776791217375
4054975 0.5263934195894048 -0.8377507178105575
4074775 0.5218010749869528 -0.8407900042699664
4094550 0.5169834475261352 -0.8437442759898538
4114250 0.5124844232917659 -0.8462204622629304
4134050 0.5071282624877439 -0.8488007443898036
4153850 0.5024478508596163 -0.8516841409714785
4173650 0.49749036700643273 -0.8546127293266671
4193350 0.4929964688740992 -0.8569857205693486
4213150 0.48776331027330255 -0.8597524467057931
4232950 0.4827159590040458 -0.8622688913353224
4252750 0.4779901012254276 -0.8648025144981438
4272450 0.4730001879823762 -0.8675077631726467
4292250 0.46782832610863156 -0.8701424150420095
4312050 0.4626731531364109 -0.8727870730820033
4331850 0.4576250916125762 -0.8752791861240947
4351550 0.45263676682194753 -0.8776925209285658
4371350 0.44737954171231525 -0.8806042325660551
4391150 0.4421593426777166 -0.8826232409497253
4410950 0.4367563059384941 -0.8851458640601082
4430650 0.43141718998116935 -0.8874022430858162
4450450 0.42621351387176465 -0.8900339777509576
4470250 0.42051936755539376 -0.8921753352949032
4490050 0.41535932959423916 -0.8947542536216118
4509750 0.40979278620025794 -0.8969079274012985
4529550 0.404418939323699 -0.8993544258763755
4549350 0.3989072658067721 -0.9012701539860055
4569150 0.3935906763889714 -0.9034800444575773
4588850 0.38727685304991494 -0.9055657140158486
4608650 0.38223113773419876 -0.9079087469707492
4628450 0.37618681744273297 -0.9101750911663091
4648250 0.3705622205528111 -0.9122441086260755
4667950 0.36427506123611525 -0.9138091441603482
4687750 0.3587861196962577 -0.9161263204739926
4707550 0.3529336099235719 -0.9185978063605613
4727350 0.3466296695126765 -0.9199688463525578
4747050 0.3405282806844039 -0.921485817873717
4766850 0.33439337474879816 -0.9234007976433668
4786650 0.3282774393929431 -0.9248386429126041
4806450 0.32179549783835454 -0.926481582080328
4826150 0.31566316148589824 -0.9281328008797064
4845950 0.3087536879595825 -0.9293708239762632
4865750 0.30225380732090973 -0.9305826808889937
4885550 0.29595501045399414 -0.9317730931059277
4905250 0.2889304736361196 -0.9332080200626004
4925050 0.28195974141768654 -0.9335513640328282
4944850 0.27528315402122716 -0.9344227800681875
4964650 0.26764984432264954 -0.934837628447247
4984350 0.26091884660797376 -0.9348957287183994
5004150 0.25372555505802946 -0.935165966519584
5023950 0.2460918251411005 -0.9344089822257521
5043750 0.23941369046241717 -0.9336667862613244
5063450 0.2323682979936622 -0.9321807906802787
5083250 0.22537931398676783 -0.9299696973546255
5103050 0.2192797078372632 -0.9269800378504729
5122850 0.21368901849795288 -0.9243205057170018
5142550 0.20859051738915835 -0.9207645011550948
5162350 0.20482565489432736 -0.917046458394825
5182150 0.20227918989707577 -0.9136497342904544
5201950 0.20130861880103995 -0.9111518346217043
5221650 0.2003821946508432 -0.9098460459770711
5241450 0.200409121356867 -0.9093424483921086
5261250 0.20013290662048583 -0.9102820701908391
5281050 0.19949024246362027 -0.9127765662914227
5300750 0.19811607502688 -0.9159436850832041
5320550 0.19592239013970733 -0.9200603563659837
5340350 0.19292934528229383 -0.9236337727699895
5360150 0.18876512008157295 -0.9278808855168519
5379850 0.1842989078462761 -0.9320758883742546
5399650 0.17890222221444646 -0.9361552129174909
5419450 0.17326064063983168 -0.9392362934419033
5439250 0.1671876862303747 -0.9427854553998812
5458950 0.16078810501938456 -0.9458212129417726
5478750 0.1542828374969966 -0.9480691221155826
5498550 0.14759118351691533 -0.9504106597674263
5518350 0.14057594212387992 -0.9532519377589774
5538050 0.13373045156767097 -0.95489118625193
5557850 0.12671937347968074 -0.9569423134030822
5577650 0.12010454356921968 -0.9581273383706134
5597450 0.11284466798055365 -0.9596542618188062
5617150 0.10563048510787865 -0.9614346060995212
5636950 0.09899935243112043 -0.962148642727184
5656750 0.09154875902133806 -0.9634091533639657
5676550 0.08403631001498968 -0.9644582530397173
5696250 0.07707197922429357 -0.9654111499022522
5716050 0.07029561247630911 -0.9657734769049188
5735850 0.06275147380328257 -0.966857094331654
5755650 0.05560821457397443 -0.9670329444319693
5775350 0.048577858795064106 -0.9670131332940063
5795150 0.04102874874686227 -0.9681744552499526
5814950 0.03383081450472555 -0.9683003685598146
5834750 0.026181849216437247 -0.968698325446599
5854450 0.0189046824970819 -0.9689085109878132
5874250 0.011544494520206687 -0.9687575370163456
5894050 0.003950703269930504 -0.9686049739388007
5913850 -0.003561147913596448 -0.9687362266388195
5933550 -0.011072287125279485 -0.9681839964817106
5953350 -0.01856226050556638 -0.9679650512660701
5973150 -0.02568702603090619 -0.9680493978259689
5992950 -0.033729202473098865 -0.967562063067554
6012650 -0.04105608747077797 -0.9666364413686918
6032450 -0.049042563205730624 -0.9660105154385501
6052250 -0.05654814762490781 -0.9656921008593974
6072050 -0.06423963407384548 -0.9648440075162562
6091825 -0.07227533033703179 -0.9642810011465189
6111525 -0.07936900561692879 -0.9637059974749865
6131325 -0.08709304119846864 -0.962515291907357
6151125 -0.09561924796526376 -0.9613581165997928
6170925 -0.1036576997188689 -0.9603099883278765
6190625 -0.11179061543431258 -0.9591511329995225
6210425 -0.11942134605470946 -0.9579828388034635
6230225 -0.12782271665652148 -0.9561553723744644
6250025 -0.13616899955894773 -0.9553477073551674
6269725 -0.143911792543321 -0.9530899902001166
6289525 -0.15237283200540605 -0.9520603565921038
6309325 -0.16078040733973553 -0.9499660077989206
6329125 -0.16899078920446828 -0.9476397042996249
6348825 -0.17724173874571497 -0.9454494824150826
6368625 -0.1867993661046093 -0.9431895079830617
6388425 -0.19588502757111875 -0.9411684048112398
6408225 -0.20401218895581627 -0.9385478324241234
6427925 -0.21215637408126212 -0.9351638091365378
6447725 -0.22073541496185878 -0.9326139369578413
6467525 -0.22973978835375547 -0.9298558335170628
6487325 -0.23862578970578618 -0.9267414155990319
6507025 -0.24713411412923625 -0.923319553813883
6526825 -0.2556750477042523 -0.9201155919924705
6546625 -0.2645488935890096 -0.9169676314931593
6566425 -0.2730287938638029 -0.9131945634329269
6586125 -0.2818746460003518 -0.9094780087194746
6605925 -0.2906830442222074 -0.9053239815675691
6625725 -0.30028941807171733 -0.9015928150626968
6645525 -0.30893041815905625 -0.8971161385389753
6665225 -0.3179519987513847 -0.8929796675115962
6685025 -0.32704796893447846 -0.887940275236077
6704825 -0.3358831828345975 -0.8826931965486061
6724625 -0.34564155894185405 -0.877516029092935
6744325 -0.3541701423072715 -0.8715974212225666
6764125 -0.3635631039982485 -0.8660613587679402
6783925 -0.373006357415402 -0.8597316483186752
6803725 -0.3819511297401948 -0.8532767609547997
6823425 -0.39046037996087274 -0.8464316446026643
6843225 -0.39993981637920273 -0.838652330353346
6863025 -0.4091324303045956 -0.8315172343300739
6882825 -0.4173853817534373 -0.823426937793231
6902525 -0.42611582297799727 -0.8152164042969795
6922325 -0.4345980098725049 -0.8060487439636689
6942125 -0.4422740017417872 -0.7963057048068817
6961925 -0.4498210361993367 -0.7866218926603181
6981625 -0.45686094247251013 -0.775686291717977
7001425 -0.4636313766958246 -0.7644812699813864
7021225 -0.46909733223048755 -0.7529279217537573
7041025 -0.4734772385665033 -0.740845437988775
7060725 -0.47751951555799216 -0.7284113632710665
7080525 -0.47964571998967065 -0.71621899489024
7100325 -0.4805527757870317 -0.7044009064708275
7120125 -0.48002686559603336 -0.6926507078360029
7139825 -0.478316322314221 -0.6823850226053163
7159625 -0.47505278429862297 -0.673084378580579
7179425 -0.47080678115398356 -0.6657428697499059
7199225 -0.4665335399500365 -0.6606428446710397
7218925 -0.46207409497293334 -0.6575882746229248
7238725 -0.45898196119147466 -0.657308991156036
7258525 -0.45701758670675596 -0.6582610446964955
7278325 -0.45720220946877516 -0.6613072663235364
7298025 -0.4600849574515296 -0.663979296316665
7317825 -0.4648478614235773 -0.6672923533811181
7337625 -0.4717011309736645 -0.6695243005546203
7357425 -0.4798994498254831 -0.6713188080947488
7377125 -0.48927629948258017 -0.6711484241999645
7396925 -0.49965548246744285 -0.6704996496929088
7416725 -0.5105034088904151 -0.6685250084232447
7436525 -0.5215181103104611 -0.6649715652132798
7456225 -0.5327938973877978 -0.6606445844995447
7476025 -0.5437856323030978 -0.6546891387997095
7495825 -0.554860202027121 -0.6487221700795808
7515625 -0.5652628526626851 -0.6411879452590122
7535325 -0.5752676860660116 -0.6338077608907239
7555125 -0.5857894663429704 -0.6256218946525527
7574925 -0.5956666057062201 -0.6165947187392479
7594725 -0.6054771723044939 -0.6073779169908359
7614425 -0.6149962601004322 -0.5979025748761629
7634225 -0.6243843806979319 -0.5872864771245075
7654025 -0.633315249633997 -0.5769172656375017
7673825 -0.6423003366611141 -0.5660655973667379
7693525 -0.6511337657150712 -0.5547957552758827
7713325 -0.6593012459608817 -0.5434082693665864
7733125 -0.6674555809156187 -0.5317763912613134
7752925 -0.6753252695091868 -0.5193819858567813
7772625 -0.6833293120964421 -0.5071863272550402
7792425 -0.6911585674018563 -0.49485216922562
7812225 -0.6987781193391122 -0.48151625669596787
7832025 -0.7061776827340482 -0.46818035439262273
7851725 -0.7136082440895339 -0.45500983872026113
7871525 -0.7209143375622479 -0.44051544434982054
7891325 -0.7281126972623131 -0.42624209128991425
7911125 -0.7352877670409254 -0.41129093271577066
7930825 -0.7421016250755564 -0.3959770055137569
7950625 -0.7485436050054552 -0.3803176740750754
7970425 -0.7552716872653186 -0.3637010419114776
7990225 -0.7612902628934776 -0.3466574317357504
8009925 -0.766996285952966 -0.329141630018021
8029725 -0.7722263142709289 -0.3109538650828667
8049525 -0.777008409419554 -0.2924980975582804
8069325 -0.7816293330585705 -0.2735881921697659
8089100 -0.7850521240938015 -0.25434789942323915
8108800 -0.7889887350496766 -0.2346257334987134
8128600 -0.7924341925514241 -0.2142467605945716
8148400 -0.7954307250633605 -0.19328520290058035
8168200 -0.7977245542541637 -0.17166676014357143
8187900 -0.7995854402676965 -0.14977184098880617
8207700 -0.8009453346104528 -0.12710960465989146
8227500 -0.8015370973752661 -0.10381070741016542
8247300 -0.8014912828607651 -0.07965877856948358
8267000 -0.8007078364636272 -0.055490830855193345
8286800 -0.7991383371899009 -0.030348623845238232
8306600 -0.7964793956137283 -0.004654246118869463
8326400 -0.7929905934411016 0.02166746108841312
8346100 -0.7886804812738091 0.04838655622172995
8365900 -0.7828652652567031 0.07579885377348598
8385700 -0.7760602861765711 0.1035969014399037
