# Hz S RI R 50
100000 0.9985921778055712 -0.024327858584305164
119700 0.9976476696727781 -0.0285929474697447
139500 0.9973217452228539 -0.03341727658842841
159300 0.9972047735718269 -0.037906246288791925
179100 0.9968710889543079 -0.04275996667117015
198800 0.9967259845254971 -0.0475535721620275
218600 0.9964302793993496 -0.05217276926331497
238400 0.9965056769968955 -0.056691645851889606
258200 0.9959227825623124 -0.06146498986338438
277900 0.9956445048616035 -0.06595100430265997
297700 0.9955014019110238 -0.07073138990436
317500 0.995062347544035 -0.07542259447532713
337300 0.9946125582252942 -0.08003394404472369
357000 0.994172126311182 -0.08497825481656916
376800 0.9937170312735234 -0.08941931911397893
396600 0.9934708740824907 -0.0943089099200161
416400 0.9925554285833739 -0.09897514341860406
436100 0.9923974301614888 -0.10357384034392761
455900 0.9918059729341029 -0.10825418297967845
475700 0.9911389059195121 -0.11317632189656879
495500 0.9908801376637106 -0.1180038539811437
515200 0.9899156420937806 -0.122582044586345
535000 0.9895700980574801 -0.12737516793087122
554800 0.9891371772248808 -0.13202681131901514
574600 0.9885428243222694 -0.1368642689614606
594300 0.9875852424141558 -0.14163308603094224
614100 0.9867520829207385 -0.1461995569666051
633900 0.986449114291461 -0.15107760517915647
653700 0.9856005221740927 -0.15585756181709956
673400 0.9847513247466004 -0.16072861525097068
693200 0.9838499712051607 -0.16519692699916141
713000 0.9832675367662352 -0.17016938697457715
732800 0.9822526681226653 -0.17474822613176938
752500 0.9813868237420696 -0.17967301762290136
772300 0.9805240414421075 -0.1845407233376989
792100 0.9794799228432144 -0.1893531809765889
811900 0.9785870443719814 -0.19410304171909865
831600 0.9775444708762616 -0.19883624347719067
851400 0.9767132452257116 -0.20377712348124957
871200 0.9750784000926245 -0.2085883398574978
891000 0.9742889364297167 -0.21376473038763877
910700 0.9732724118324029 -0.21853364557192798
930500 0.9725581765332239 -0.22348211923528577
950300 0.9712867215985763 -0.22823893442738472
970100 0.969650475090421 -0.23289511207244584
989800 0.9687964206958014 -0.2379380389592077
1009600 0.9673937970401101 -0.24293055301421548
1029400 0.9661086561742087 -0.24790629804677436
1049200 0.9648276905553279 -0.2527999662228277
1068900 0.9633575045948839 -0.2578765411659127
1088700 0.9617569780432171 -0.26312538350494974
1108500 0.9609371849483076 -0.26775445944946025
1128300 0.9593172763274006 -0.27286898071167737
1148000 0.9575336065435666 -0.27789696433712197
1167800 0.9561802830740816 -0.28309456484467954
1187600 0.9544338284935959 -0.2880210039800629
1207400 0.9528612470168389 -0.29323592514631674
1227100 0.9513005761877708 -0.2983257528632792
1246900 0.9496989294851905 -0.30330723409343074
1266700 0.947977637903017 -0.3085415063544184
1286500 0.9462527570002847 -0.3138517293334813
1306200 0.9444534044368653 -0.31893492297126363
1326000 0.9429971557766389 -0.3239465455197189
1345800 0.9408156925769945 -0.3298767981354983
1365600 0.9386162359774051 -0.3348504015363834
1385300 0.9370532054527801 -0.34028908041482914
1405100 0.9349692024420846 -0.345444641428424
1424900 0.9327766487513942 -0.3508777872420326
1444700 0.9307662630921103 -0.35653073172031263
1464400 0.9286433515748665 -0.3617010180758416
1484200 0.9265158863108193 -0.36729478916735786
1504000 0.924055816983356 -0.37279949455743255
1523800 0.9217457737933001 -0.37802446783923593
1543500 0.9193429626052856 -0.3838248718564189
1563300 0.9169042602786068 -0.3895041344582232
1583100 0.9147026195939479 -0.39521674397961154
1602900 0.9116561233898713 -0.400874479986575
1622600 0.9091095924868793 -0.4065763111745391
1642400 0.9064085116844385 -0.4123928740383607
1662200 0.9038864649900279 -0.4183714676379484
1682000 0.9008623750466656 -0.42398394836321873
1701700 0.8982971283657214 -0.4302920188187771
1721500 0.8949320640180226 -0.43628748772659626
1741300 0.8919977086677165 -0.4423554175492149
1761100 0.8887037751734805 -0.4486684775682346
1780800 0.8855027454789315 -0.4545749955105755
1800600 0.8824557362265065 -0.46126683597662643
1820400 0.8785386322623003 -0.46738506435735255
1840200 0.8748799866690082 -0.47380070711008315
1859900 0.8711728248313133 -0.48089986457197714
1879700 0.8672855481530063 -0.48715083273859605
1899500 0.8634647370854943 -0.4940730949134514
1919300 0.8590427887803532 -0.5010041576291037
1939000 0.8548230118811697 -0.5079411998060551
1958800 0.8503978295896708 -0.5152471408741752
1978600 0.8460104534966901 -0.5225529941497665
1998400 0.8409156390337806 -0.52965700926935
2018100 0.8360594823026645 -0.5371104911719291
2037900 0.8307416280594483 -0.544614316703834
2057700 0.8250622658228493 -0.5526676703896732
2077500 0.8195397358740445 -0.5604871462534575
2097275 0.8136761276661683 -0.5688992089868374
2116975 0.8070063584400519 -0.5767313264550268
2136775 0.8004937557278602 -0.5854469222195882
2156575 0.7935453324916469 -0.5942250402553004
2176375 0.7861610260527145 -0.6034204367761299
2196075 0.778814310682956 -0.6125537282858001
2215875 0.7704490658060407 -0.6217768507416606
2235675 0.7617231112319058 -0.6315845445649504
2255475 0.7524579388706715 -0.6416249489310799
2275175 0.7427260362238839 -0.6519710282017678
2294975 0.7317262681070382 -0.6625334538786835
2314775 0.7204734355505726 -0.673670190424616
2334575 0.7088243058672709 -0.6853845614801306
2354275 0.6953077099369267 -0.6973853070875712
2374075 0.6807699185993779 -0.7092152178533233
2393875 0.6651564847108329 -0.7225728051496223
2413675 0.6483755756916151 -0.7354731028857142
2433375 0.6294128845366993 -0.749081895114335
2453175 0.6086207355658606 -0.7633238275483796
2472975 0.5856651629606582 -0.7777461914946006
2492775 0.5601052574030468 -0.7929288718482984
2512475 0.5312637394776433 -0.8081108560466306
2532275 0.49873833427372016 -0.8232145065098908
2552075 0.46197772168716866 -0.8384678310523664
2571875 0.4196139752513612 -0.8531403884513103
2591575 0.3713374255364243 -0.8665607638777385
2611375 0.3158548819693869 -0.8772441234554607
2631175 0.2518585181317121 -0.8853678983965809
2650975 0.17570455764036524 -0.887737456077331
2670675 0.08779219971943451 -0.8805622333899918
2690475 -0.01384293458570499 -0.8571844246895907
2710275 -0.12754314847725523 -0.8125661480769225
2730075 -0.2512391613196745 -0.7348249712044665
2749775 -0.3729406247131504 -0.6146599165796297
2769575 -0.47541299919060986 -0.4412631555650947
2789375 -0.5280379622445172 -0.21774605587792126
2809175 -0.5019583955466652 0.032130906282043764
2828875 -0.38611170166487707 0.2640859177292712
2848675 -0.1990472059220921 0.43656627549525917
2868475 0.016228944207083432 0.5278499920717821
2888275 0.22191588378041274 0.5456239660060838
2907975 0.3950111332813038 0.5132272660067446
2927775 0.5312191470597672 0.4523285249510174
2947575 0.633456284826208 0.3789882851907634
2967375 0.707614963093516 0.3029026214361297
2987075 0.760380583049704 0.23066982061056474
3006875 0.7968829850636715 0.16257550477681781
3026675 0.8211869968587772 0.10072366245172737
3046475 0.836028449863489 0.044191045898738006
3066175 0.844099109112717 -0.006543934897656909
3085975 0.8465131408080224 -0.05246114973060069
3105775 0.8434713779034129 -0.0937045227979292
3125575 0.8365740614049749 -0.13026024361157296
3145275 0.824861936857517 -0.16275876264003286
3165075 0.8101860972262317 -0.19048003751935605
3184875 0.7905530384003087 -0.21280830110952545
3204675 0.7675952761475602 -0.22807220464421155
3224375 0.7425523984092608 -0.2344934763700972
3244175 0.7172087032651462 -0.2297716452012163
3263975 0.6965816227115575 -0.21260295750954383
3283775 0.6884648785253631 -0.18375187473522403
3303475 0.698006722479415 -0.15114281051964443
3323275 0.726447626781921 -0.1256392495910038
3343075 0.7642757427858781 -0.1155043118698143
3362875 0.8024777599283094 -0.12096135124568369
3382575 0.8352391043587831 -0.13775363694921827
3402375 0.860254600663682 -0.161298538047553
3422175 0.8781623713415607 -0.1868198464791662
3441975 0.8895196906951479 -0.21256009164063233
3461675 0.8963485590585732 -0.23688406220900018
3481475 0.900264205211197 -0.2597288776973395
3501275 0.901748865596801 -0.28090460035433124
3521075 0.9018577719785432 -0.3004176017583443
3540775 0.9001299827300387 -0.3181901363386456
3560575 0.8982204478149892 -0.33496823379152496
3580375 0.8953190606234467 -0.35032296706387034
3600175 0.8919290571674654 -0.36496654403890355
3619875 0.8878927754153427 -0.37787232064575904
3639675 0.8841303196111673 -0.3907269291156252
3659475 0.8798575252979457 -0.40234890979707283
3679275 0.875569682031311 -0.41349959084042126
3698975 0.8711232095747585 -0.4236397328168811
3718775 0.8667424126295772 -0.43362645518827697
3738575 0.8623261656474652 -0.4427654614087629
3758375 0.8581630183219405 -0.4513297000961594
3778075 0.8537552211681787 -0.45964402275734356
3797875 0.8502131252017396 -0.4674389879331736
3817675 0.8462207780243481 -0.4752182883379475
3837475 0.8424368562632008 -0.482572922885238
3857175 0.8384869966431283 -0.4904445074786751
3876975 0.8350021808605883 -0.49759314335929733
3896775 0.83096530678788 -0.5049259678195431
3916575 0.8274202437864233 -0.5117321767798985
3936275 0.82372117920117 -0.5186559264476683
3956075 0.8199258276372069 -0.5253176275214996
3975875 0.8159536498647341 -0.532001255125337
3995675 0.811957255633935 -0.5384314493779856
4015375 0.8082052254960373 -0.5451749663948751
4035175 0.8043690274343722 -0.5513210873851666
4054975 0.8005839828789134 -0.5572793793110087
4074775 0.79645048961164 -0.563415678146172
4094550 0.7924329080144448 -0.5694616154837061
4114250 0.7889436723757505 -0.5751057245874501
4134050 0.7845563899618636 -0.5809480676779111
4153850 0.780628639214344 -0.5869300156020935
4173650 0.7764607617708187 -0.5925553753611865
4193350 0.7724250670473808 -0.5978946475180134
4213150 0.7682854387998522 -0.6037774365546095
4232950 0.76377989426848 -0.6091307076716858
4252750 0.7597541453981562 -0.6141761586143464
4272450 0.7555692030320399 -0.619676037532534
4292250 0.7513621166941779 -0.6248948735255128
4312050 0.7466313306718236 -0.6298838221523031
4331850 0.7422300150886713 -0.6350113528940401
4351550 0.7377154612944663 -0.6402911362855979
4371350 0.7334134628755965 -0.6452786032370194
4391150 0.7284769449419514 -0.649684531260277
4410950 0.7239164262021918 -0.6548863211722774
4430650 0.719064379132256 -0.6596505636747523
4450450 0.714737339630904 -0.6644688615596414
4470250 0.7095608797078938 -0.668890181029405
4490050 0.704940399034912 -0.6736284330061226
4509750 0.6997425459990619 -0.6781538483133458
4529550 0.6950547190363778 -0.6828511058244356
4549350 0.6900226524141122 -0.6870018250382335
4569150 0.6848594273942267 -0.6913537178766739
4588850 0.6792753732546353 -0.6958617331560278
4608650 0.6743330547613321 -0.7000148578376997
4628450 0.6687786476804592 -0.7044429465321463
4648250 0.6636479892709172 -0.7086386511500237
4667950 0.657773422750781 -0.7126320162151444
4687750 0.6524857478797479 -0.7168086609472836
4707550 0.6467400887061227 -0.7211963462900733
4727350 0.6404969718890039 -0.7251648374533538
4747050 0.6342976588287083 -0.7286901653928869
4766850 0.628503570388549 -0.7326710522589125
4786650 0.6221691427770654 -0.736356812126149
4806450 0.6155265541614775 -0.7398525878680907
4826150 0.6092255683204268 -0.7435349212712088
4845950 0.6020520561844298 -0.747182331698717
4865750 0.595155963993947 -0.7503219806927521
4885550 0.5884171079616459 -0.7536037468801485
4905250 0.5807830012039795 -0.7570318688772869
4925050 0.5731763875259743 -0.759922669460933
4944850 0.5655984949127822 -0.7628031678271664
4964650 0.557335919148825 -0.7661160666054245
4984350 0.549279711382876 -0.7684285794437395
5004150 0.5409357746101837 -0.7712305122540057
5023950 0.53126548433072 -0.773352202143532
5043750 0.5226338254442408 -0.7752122780507473
5063450 0.5127602546561997 -0.7770976559539639
5083250 0.5017360217849808 -0.7781527078826772
5103050 0.4916700987401731 -0.779071397463922
5122850 0.4804111357855781 -0.7792467596725431
5142550 0.4688422640533417 -0.7789408408323537
5162350 0.4565795385685892 -0.7779143220980059
5182150 0.4441649014650355 -0.7759136775515241
5201950 0.431321690433278 -0.7731311597884277
5221650 0.41764987474419485 -0.7697006720032998
5241450 0.4037390162782963 -0.7639519670977832
5261250 0.38933240132932145 -0.7568376391943469
5281050 0.37450530651311176 -0.7477305233807132
5300750 0.3598271213164681 -0.7366018159994797
5320550 0.3459076728630154 -0.7229398762137615
5340350 0.33299280663704506 -0.7059187778272649
5360150 0.3214168671782385 -0.6861066254717949
5379850 0.3128102467603048 -0.6638977028150422
5399650 0.30770041590653613 -0.6385408156705152
5419450 0.3068818277905393 -0.6106678048685273
5439250 0.3118935479511268 -0.5818834366692467
5458950 0.322671985294216 -0.5536304173996963
5478750 0.3398773230423315 -0.5273638319372875
5498550 0.36267599934936273 -0.5048556437470937
5518350 0.3901569649199371 -0.48842002670178003
5538050 0.4195589714300395 -0.47810932734566935
5557850 0.450061830058145 -0.47424579442368203
5577650 0.47926290500497803 -0.4764870408076487
5597450 0.5060485129604358 -0.48407833056052874
5617150 0.5298245038796321 -0.49591073076592346
5636950 0.5499155061814356 -0.5099830090487648
5656750 0.5657649816976935 -0.526365360161239
5676550 0.5785130018622309 -0.5436269429502826
5696250 0.5883617262201262 -0.5609363015223153
5716050 0.5957466083400095 -0.5778796181478292
5735850 0.5999575377431741 -0.5945592958315279
5755650 0.6025052352392722 -0.6104950213672377
5775350 0.6038585255501024 -0.6249188233775573
5795150 0.6039983813333282 -0.63961423355441
5814950 0.6032298097970686 -0.6526180583092229
5834750 0.6010432709774995 -0.6654398714045568
5854450 0.5987527460951859 -0.6772117743306649
5874250 0.5956821822531804 -0.6880358897318525
5894050 0.5921744437981267 -0.6981599815668154
5913850 0.5882644837345046 -0.7082034824634418
5933550 0.5840943130235877 -0.7171474927465163
5953350 0.5797714033855322 -0.7256014953291186
5973150 0.5758296973223832 -0.7337348629780321
5992950 0.5707282566518501 -0.7419197463399546
6012650 0.5662852503381075 -0.7484428807152429
6032450 0.5610032277466636 -0.7558553915574633
6052250 0.55635170020287 -0.7623654772212082
6072050 0.5515491803865666 -0.7686015876914233
6091825 0.5462701961001535 -0.7748979469334764
6111525 0.5418901981633877 -0.7807051577534565
6131325 0.5367294429677337 -0.7860228222373911
6151125 0.5312223583509811 -0.7915596167125475
6170925 0.5259176326966712 -0.7965845589273388
6190625 0.5207839361421812 -0.801455439093421
6210425 0.5157065926541432 -0.8059587283845782
6230225 0.5104143593496314 -0.8106638299035898
6250025 0.5051453044714619 -0.8158563862561875
6269725 0.49968070284168636 -0.8192019140125936
6289525 0.49494255263440823 -0.8240630314788197
6309325 0.48912422528421884 -0.8276194937492468
6329125 0.48375369915171634 -0.8312780034398245
6348825 0.47823004619017795 -0.8347496566187511
6368625 0.47219820732139434 -0.8394662202198586
6388425 0.46679176676013096 -0.8431335975206672
6408225 0.46165422930299443 -0.8460252304216448
6427925 0.45542867376699564 -0.8486712954054114
6447725 0.4502619141101883 -0.8519244726182074
6467525 0.4447014688616919 -0.8546858575896014
6487325 0.4397458805889869 -0.8574969797552383
6507025 0.433765088864757 -0.8600126926240397
6526825 0.4289411351993068 -0.8624494855137821
6546625 0.42329278714789026 -0.8650570320228974
6566425 0.4182794974160221 -0.8671791136962657
6586125 0.41298353476615796 -0.86982685504872
6605925 0.4075485964864109 -0.872028979986556
6625725 0.40200157834721706 -0.8748538716637617
6645525 0.39681588338056273 -0.8765049325227031
6665225 0.39155450988266816 -0.8790559067938997
6685025 0.38589537147569525 -0.8804404457519264
6704825 0.38048747721184234 -0.8827727844463051
6724625 0.3748168371423426 -0.8847905421252199
6744325 0.36902010647181505 -0.8863109924285537
6764125 0.3635280682720778 -0.8879735522502795
6783925 0.35757745217998305 -0.8895417826486354
6803725 0.35193516807126096 -0.8910193050142721
6823425 0.34636567625366654 -0.8920218055104608
6843225 0.33949964324421666 -0.893101106307096
6863025 0.33355724820030075 -0.895002716304803
6882825 0.32782451982335215 -0.8952204457553785
6902525 0.32200856884139234 -0.8960136705920464
6922325 0.3152456051682331 -0.8966269763658801
6942125 0.3090444770165151 -0.8966333991120738
6961925 0.3029250936156081 -0.8967349935422023
6981625 0.2964267234666639 -0.8962735261171865
7001425 0.2893186078508243 -0.8958975056270931
7021225 0.2834064998609716 -0.8949161079491542
7041025 0.2769659184406549 -0.8935334571991211
7060725 0.2699820915260532 -0.8915873589877567
7080525 0.26403085840429474 -0.8895053725392515
7100325 0.2581289917724649 -0.886671320694699
7120125 0.2516395399549599 -0.8832438576557742
7139825 0.24634444808095937 -0.8798339181385796
7159625 0.241106700368593 -0.8749630998464759
7179425 0.23685399790117456 -0.8694982580422255
7199225 0.23339143163097276 -0.8637200245086869
7218925 0.2308836000692221 -0.8575614593078639
7238725 0.2296634273505406 -0.8515189502812504
7258525 0.22989577196512934 -0.8448937445498947
7278325 0.23222964165476523 -0.8396596744043046
7298025 0.23515607015260087 -0.8348129024277179
7317825 0.23942902798937998 -0.8319154549484743
7337625 0.24430449769752924 -0.8302537466886892
7357425 0.24960185185052614 -0.8302411673797521
7377125 0.2538516830205807 -0.8320384750102252
7396925 0.2581542124221834 -0.8349233207559076
7416725 0.2610627000478087 -0.8394214539807011
7436525 0.2632136595513933 -0.8434479659789216
7456225 0.2641313242372956 -0.849094017929741
7476025 0.26384985998602634 -0.8539236162678484
7495825 0.26330899189295753 -0.8594061741443574
7515625 0.2617757431208523 -0.8645731568611364
7535325 0.2600796055859238 -0.8689108596868037
7555125 0.2573828447867129 -0.874143477898926
7574925 0.2547262373919132 -0.8782000217116197
7594725 0.2514983572679008 -0.8824173641615879
7614425 0.24823147250056563 -0.8860476775173255
7634225 0.24436950212820924 -0.8896609521393892
7654025 0.24117761475214342 -0.8933519343647457
7673825 0.23715830839854754 -0.8968073669619933
7693525 0.2333415804469127 -0.9000422388857398
7713325 0.22957476585838957 -0.9027564468261499
7733125 0.22583011239492004 -0.9052799267561
7752925 0.2216402132513071 -0.9078213204210854
7772625 0.21756454158225982 -0.9105585596407577
7792425 0.21389180369984265 -0.9130304042354215
7812225 0.20936920543815016 -0.9154757948435063
7832025 0.20551503113875805 -0.9175435823512005
7851725 0.20190393321882552 -0.9206052221337473
7871525 0.19684375411690386 -0.9224014097233488
7891325 0.19295415325960552 -0.9247511730581459
7911125 0.1884061337178396 -0.92714374639326
7930825 0.18437680627307015 -0.9292150684466
7950625 0.1799848076690563 -0.9310140276012674
7970425 0.1754946032153736 -0.9334485711605823
7990225 0.17051329605209048 -0.9349805705184244
8009925 0.1661413221306252 -0.9369722811644269
8029725 0.16148786557226358 -0.9386725763464058
8049525 0.15697289944648682 -0.9399583470845264
8069325 0.15262627206059584 -0.94222010783314
8089100 0.1476720537587555 -0.9432987939226889
8108800 0.1431004489078053 -0.9449838287940224
8128600 0.13788924534041797 -0.9466907489585678
8148400 0.1336973466508317 -0.9477812788087489
8168200 0.12892501640421833 -0.9491497728895701
8187900 0.12439417078580244 -0.9502128230337357
8207700 0.11936291358933568 -0.9521697827630706
8227500 0.11455229339025345 -0.9528630904658886
8247300 0.10920020340956664 -0.953958592759231
8267000 0.10496418020348382 -0.9554628644894299
8286800 0.09967094585508764 -0.95628952420058
8306600 0.09510880468339405 -0.9573032597860937
8326400 0.09011103326868228 -0.9580218495038703
8346100 0.08514937209856771 -0.9588681503021148
8365900 0.08039996717869002 -0.9594690125311726
8385700 0.07529596396084656 -0.9604857546392982
8405500 0.07037929932578894 -0.9612087878949308
8425200 0.06521487592339408 -0.9617257173803685
8445000 0.060863689107867755 -0.9619870497916012
8464800 0.05554166883838355 -0.9633465069392625
