# Hz S RI R 50
100000 0.9984066951618855 -0.024564952229738254
119700 0.9977195192949369 -0.028521132707166975
139500 0.9972455073759601 -0.03359059554438383
159300 0.9969523368140744 -0.03797527853496798
179100 0.996726734237003 -0.0426744042340288
198800 0.9965577878433118 -0.04727277270999071
218600 0.9963002202394393 -0.052113769030211095
238400 0.9962718251945367 -0.056831321389503364
258200 0.9955674415711177 -0.061427441361539756
277900 0.9953350223325459 -0.06591619173338589
297700 0.995073448985027 -0.07061324870870246
317500 0.9948129884934838 -0.07539992311893114
337300 0.9944200827769548 -0.07985929846793495
357000 0.9939261004144891 -0.08476874528337093
376800 0.9935912170552984 -0.0892234437172399
396600 0.9931726028994117 -0.09404911020011217
416400 0.9925757820081249 -0.09853681839492923
436100 0.9921802293421841 -0.10345436459563406
455900 0.9916225390252804 -0.10791502570265163
475700 0.9909658516058871 -0.11255228468567333
495500 0.9906527092496074 -0.1172536072272105
515200 0.9897963861809513 -0.12190011808351828
535000 0.9892010273215164 -0.12656594923057962
554800 0.9890095317416123 -0.13119358976489606
574600 0.9883937425747441 -0.1360436254825561
594300 0.9874881149282987 -0.1406132090612448
614100 0.9867825988771052 -0.14517148677018069
633900 0.986334962559568 -0.1499139410835284
653700 0.9853081286403358 -0.15448938680774996
673400 0.9848049016924305 -0.15908640033730603
693200 0.9838207035877565 -0.16339771716543172
713000 0.9831887280932511 -0.16826608333739165
732800 0.9822188432847713 -0.17293787305604605
752500 0.9816357868733238 -0.17737140770655924
772300 0.9806483070908856 -0.1821435976482508
792100 0.9799545052202965 -0.18683476056361717
811900 0.9787898770407221 -0.19140949883423564
831600 0.9780550016236786 -0.19564282306169226
851400 0.9772718713798838 -0.2006368194099152
871200 0.9757326921476553 -0.20505991124291595
891000 0.974832147146056 -0.20984973976940857
910700 0.9739080915081436 -0.21455990706589237
930500 0.9729223546703404 -0.21879861788390648
950300 0.971934822069925 -0.22360662780989538
970100 0.9709179838381917 -0.22804261535605028
989800 0.9697964733475379 -0.2324587598908037
1009600 0.9686249582456115 -0.23718561153083503
1029400 0.9674619794788933 -0.24204861895838897
1049200 0.9662973048674385 -0.24637155393181354
1068900 0.965149259488102 -0.2511688751635604
1088700 0.9635751996328411 -0.2557478105422122
1108500 0.9627923358556144 -0.2600829381022808
1128300 0.9613642784967401 -0.2647449000016492
1148000 0.9600574174911091 -0.26944356733819985
1167800 0.9587400404774675 -0.27389481005541555
1187600 0.9572703258697784 -0.2785289035363626
1207400 0.9559836707192801 -0.28298734541417037
1227100 0.9546268773447878 -0.2875515957532376
1246900 0.9533305400328982 -0.29205062953731165
1266700 0.9517860049502621 -0.2964405056668483
1286500 0.9503784208748667 -0.30120091328244736
1306200 0.9488197987614118 -0.3055994010875427
1326000 0.9475759758651234 -0.31004207822703694
1345800 0.9458088868421649 -0.31513222458158774
1365600 0.9441951977912786 -0.31944867089836076
1385300 0.9428324987829542 -0.32381484476212025
1405100 0.9413174127331818 -0.3283771493182422
1424900 0.9394310953994781 -0.33269174878218416
1444700 0.9379509770307168 -0.33728256202126383
1464400 0.9362333398520223 -0.34194282742683835
1484200 0.9345866444364525 -0.3463580425674656
1504000 0.932991300815418 -0.35088924600049964
1523800 0.9310805888885436 -0.3552061503352195
1543500 0.9294567524738638 -0.35975879009757145
1563300 0.927719670759238 -0.3641396102265502
1583100 0.9262146115551029 -0.36886820579543644
1602900 0.9236979358343331 -0.3730952925610194
1622600 0.9220815474025875 -0.3775533444497928
1642400 0.9203273893028489 -0.381964056418664
1662200 0.9186713086805567 -0.38639240370692796
1682000 0.9165821704242528 -0.39073920476671536
1701700 0.9149305796949716 -0.3956100696556816
1721500 0.9126902498324645 -0.39978664810539477
1741300 0.9109335065053568 -0.4040957602022862
1761100 0.9086491877050589 -0.4089112412901333
1780800 0.9068007722862353 -0.4128249896850604
1800600 0.9049862161403801 -0.41749145862947673
1820400 0.9024936506307014 -0.42161316312920144
1840200 0.9004993001862296 -0.4260385140633444
1859900 0.8983447734380361 -0.4305871889562995
1879700 0.8962318328506355 -0.43490641109788747
1899500 0.8940354409422417 -0.4393431333434036
1919300 0.8919009136719845 -0.44349855550119943
1939000 0.8896447362013029 -0.4480275747946886
1958800 0.887523921293525 -0.4523655423247306
1978600 0.8855283861923785 -0.456927254568709
1998400 0.8830002784972429 -0.46115649025565175
2018100 0.880718291167101 -0.46539566484533973
2037900 0.8782328014669252 -0.46934063281876304
2057700 0.8758749355613374 -0.47389889637502536
2077500 0.8735392697755091 -0.4782096084367061
2097275 0.8710666610412331 -0.4828931387650071
2116975 0.8688831950135638 -0.4868273855297792
2136775 0.8660175919635625 -0.4910546066681029
2156575 0.8637408232024466 -0.4953676018213359
2176375 0.8612540248057827 -0.499746947136994
2196075 0.8587283879968406 -0.5041097599691444
2215875 0.8562663145481647 -0.5083235309312907
2235675 0.8536475319657497 -0.5126080097335378
2255475 0.8509875893154778 -0.5166742660667092
2275175 0.8483840261377481 -0.5209590218069171
2294975 0.8455719081674945 -0.5252176183368892
2314775 0.8426049136423486 -0.5293706809008705
2334575 0.8402935569597458 -0.5336689954984195
2354275 0.8375296000992253 -0.5380530467561834
2374075 0.8343015302837297 -0.541983529951544
2393875 0.8319390126380821 -0.546425894216256
2413675 0.8290176893918173 -0.5501104086098592
2433375 0.8263592930193489 -0.5547098438027395
2453175 0.8232291103480408 -0.5588141798877887
2472975 0.8206150389670152 -0.5628162732269465
2492775 0.8175842043835834 -0.5669433073914623
2512475 0.8147432218146092 -0.5712673541626108
2532275 0.8114846589304818 -0.5749459144478138
2552075 0.8087774638545485 -0.5793787517881999
2571875 0.8055903499532014 -0.5835250862679946
2591575 0.8026789314454624 -0.5877334416753344
2611375 0.7996389829712248 -0.5917427093937155
2631175 0.7963416689455776 -0.5956401813539259
2650975 0.7932590054159768 -0.5995047453357865
2670675 0.7901458722060789 -0.60364579716553
2690475 0.7868301187797343 -0.6079735695035858
2710275 0.7837274880559236 -0.6119804528350912
2730075 0.780164382851387 -0.6159850260687586
2749775 0.7771037239736851 -0.619628215481701
2769575 0.7739742091994949 -0.6238696343605197
2789375 0.7705090009529928 -0.6278768165279053
2809175 0.7674393301599631 -0.6315682516073379
2828875 0.7638880957138076 -0.6358662793969753
2848675 0.7604634009575321 -0.6399124275008669
2868475 0.7569344627173709 -0.6438599815669347
2888275 0.7536320311812894 -0.6476430190654503
2907975 0.7500486017245548 -0.651468408274913
2927775 0.7467122161269817 -0.6554959212208604
2947575 0.7428355142706855 -0.6595661448744399
2967375 0.7396488132039802 -0.6635998941153569
2987075 0.7357649365260069 -0.6673965947158573
3006875 0.7323169235360614 -0.6714934119326955
3026675 0.7287933291000501 -0.6750760987748962
3046475 0.7246624383399641 -0.6789273168688521
3066175 0.7209059315309553 -0.682723252235181
3085975 0.7171602818602723 -0.6866814006982321
3105775 0.7132414548089474 -0.6904453321317559
3125575 0.7096622973791747 -0.6939202664105892
3145275 0.7054561571684125 -0.6977047788306562
3165075 0.7019491807915642 -0.7016772646330798
3184875 0.6976134347166147 -0.7052739245585702
3204675 0.693547708771426 -0.7087697149195803
3224375 0.6896837952692726 -0.7121719626142381
3244175 0.6859365168272312 -0.7155938837469097
3263975 0.6820930712117914 -0.7195334986309745
3283775 0.6784110654576324 -0.7230283653189387
3303475 0.6744825563100663 -0.7264342069779242
3323275 0.6705261489376966 -0.7302547731216491
3343075 0.666655857934379 -0.7339874273196144
3362875 0.6620724320064633 -0.7377442844973967
3382575 0.6580557291479463 -0.741654711507655
3402375 0.653822377842811 -0.7452492921786297
3422175 0.6497754352580495 -0.7488941847410153
3441975 0.6456244360436215 -0.7527170136014177
3461675 0.6411957283747562 -0.7561315521514407
3481475 0.6369414289409311 -0.7596318164666097
3501275 0.6323123207548879 -0.7634664720004238
3521075 0.6278363927408508 -0.7668712119500096
3540775 0.6233047446963536 -0.7705626968687552
3560575 0.6190361586745399 -0.7739832452510348
3580375 0.614386648088989 -0.7774672768826772
3600175 0.6097479564919827 -0.781214442685515
3619875 0.6049451953324548 -0.7842091187508551
3639675 0.6004539581891143 -0.787795449844685
3659475 0.5958341359604049 -0.7913036457708382
3679275 0.5908978391299786 -0.794616294318343
3698975 0.5863767468883458 -0.7980665177913197
3718775 0.5811685618977706 -0.8018333474590102
3738575 0.5764098980603918 -0.8050006593538008
3758375 0.5714370726225813 -0.8080311778977044
3778075 0.5664811397056432 -0.8114740155377036
3797875 0.5618881959666421 -0.8146948850336584
3817675 0.5568910561646293 -0.8180636713875595
3837475 0.5514620185646607 -0.8210549904442571
3857175 0.5463515139023056 -0.8248883298744011
3876975 0.5413001600076969 -0.8277677173200676
3896775 0.5359756996891958 -0.8310742866477789
3916575 0.5308777366662089 -0.833834102573426
3936275 0.5260052700429602 -0.8371981726082289
3956075 0.520367939120204 -0.8404320990956359
3975875 0.5150006923700164 -0.8435559705821067
3995675 0.5095681937484766 -0.846431074123154
4015375 0.503758418551396 -0.8498315480742427
4035175 0.49827688915733864 -0.8528000564400529
4054975 0.4928289870462284 -0.8557288692160187
4074775 0.4872886734628642 -0.8590677981277458
4094550 0.48150417821557834 -0.861998754435968
4114250 0.47610810400328635 -0.8647592084806097
4134050 0.4699176463056634 -0.8672865346606989
4153850 0.46421463241049626 -0.8705967943372822
4173650 0.45808592630940187 -0.8733149200346096
4193350 0.45232691475314707 -0.8760817393341409
4213150 0.44616765484582516 -0.8791318314213169
4232950 0.440020528677775 -0.8817533684588115
4252750 0.43411463163942077 -0.8844381165473505
4272450 0.4280356504105805 -0.8874181440431638
4292250 0.42151487452204744 -0.8900537284207664
4312050 0.41516088349465546 -0.8927326652797468
4331850 0.4085049620060418 -0.8954554790528716
4351550 0.4021048790595473 -0.8978850474544894
4371350 0.3955482015258823 -0.9008638161022
4391150 0.3887617178408251 -0.9028365619088394
4410950 0.38165759204469246 -0.9055691509693377
4430650 0.3749355698974249 -0.9079170897432387
4450450 0.3681024364000157 -0.9108619086177296
4470250 0.36044800305421243 -0.9126531691515721
4490050 0.3534496428305398 -0.9154102992127202
4509750 0.3459979056036715 -0.9174981020314682
4529550 0.33856213793666856 -0.9197617963933933
4549350 0.33122465476054336 -0.921891576464998
4569150 0.323767427150578 -0.9237469857432021
4588850 0.31523505285670356 -0.925535903096813
4608650 0.30764589924098446 -0.9275208355367902
4628450 0.29928754856705014 -0.9295305224506523
4648250 0.2910522433525626 -0.9312841314125176
4667950 0.28238741562211717 -0.9322812968345198
4687750 0.2736928234510663 -0.9339484978171939
4707550 0.2647803625579465 -0.9359916175952008
4727350 0.25534703345709625 -0.936482991226803
4747050 0.24591870183016526 -0.9368668217451614
4766850 0.23650032719013858 -0.9374739004306686
4786650 0.22664247325456596 -0.9376453704522602
4806450 0.21619629200507823 -0.9372016418837208
4826150 0.2060803103609763 -0.9369288864936801
4845950 0.19502854598549368 -0.9356947454162517
4865750 0.18403730513598182 -0.9339725690535194
4885550 0.17325497066351606 -0.9316166009632844
4905250 0.161657006650741 -0.9291119773378538
4925050 0.15010842772508476 -0.92464098640415
4944850 0.13870894370346454 -0.9196414438248768
4964650 0.1264859925030228 -0.9132725554839656
4984350 0.11581463769746088 -0.9053731787888772
5004150 0.10536426944066675 -0.896066663167663
5023950 0.09609304325131035 -0.8847015833324655
5043750 0.08929476252590753 -0.8718309857194271
5063450 0.08425102900304794 -0.8575681947299025
5083250 0.08281133375132695 -0.841889993649256
5103050 0.08598916625085937 -0.8272792380714157
5122850 0.09251599961089642 -0.8144450541289077
5142550 0.1020448905754814 -0.8049580523895979
5162350 0.11375117235179305 -0.7990622827385151
5182150 0.12643927587090495 -0.7981608945029919
5201950 0.13812971218860184 -0.8014480999944739
5221650 0.14711925137454304 -0.8085278607908151
5241450 0.15384015517787067 -0.8176607146626028
5261250 0.15729537391084697 -0.8281986861881276
5281050 0.15809571500267344 -0.83984894657337
5300750 0.1560248748423392 -0.8510950178683375
5320550 0.15259669551926025 -0.8621123934381589
5340350 0.14691274821208317 -0.8715893107501953
5360150 0.13993742879477702 -0.8807667899362109
5379850 0.13189096566331196 -0.889019206945526
5399650 0.12368209524354262 -0.8962341692207134
5419450 0.11425724271356671 -0.9027635573644606
5439250 0.10459930650145863 -0.9086726646165626
5458950 0.09473774365175586 -0.9136319990910896
5478750 0.08430260418703812 -0.9176035152325035
5498550 0.07361895076116234 -0.9212459219412968
5518350 0.06316780895194836 -0.9253166970426383
5538050 0.05229200032410323 -0.9277430320259011
5557850 0.04144207049262228 -0.9303451892535513
5577650 0.030896096599419377 -0.9318640235473357
5597450 0.019814517244990802 -0.9335549571151632
5617150 0.008505837621527144 -0.9353062281161549
5636950 -0.0020761786920670084 -0.9360207686615777
5656750 -0.013720550949373828 -0.9365841760887957
5676550 -0.025253712752879205 -0.9371131293141305
5696250 -0.03622608923716951 -0.9374430968332237
5716050 -0.04717796079062651 -0.9370438453146802
5735850 -0.05914751187001581 -0.9366972030468002
5755650 -0.07063112417890043 -0.9359185884616291
5775350 -0.08196811255128898 -0.9346571864439727
5795150 -0.09356593524913244 -0.9338674394228779
5814950 -0.1056447299725197 -0.9325530030467948
5834750 -0.11763957636628257 -0.9309943159768814
5854450 -0.12964592734297212 -0.929083252097154
5874250 -0.14146591855261856 -0.9267504565289426
5894050 -0.15360842547670317 -0.9243856966743768
5913850 -0.16588966873380442 -0.9216840973326181
5933550 -0.1782772644936393 -0.9186063395735957
5953350 -0.19059896535767668 -0.9155190462906309
5973150 -0.20276076901572831 -0.9122286892993798
5992950 -0.21595210877200668 -0.908466194903212
6012650 -0.22823975059636784 -0.9041507779902082
6032450 -0.2415435253376906 -0.8994287798323202
6052250 -0.25427729686551837 -0.8953841306967418
6072050 -0.2676162226062404 -0.8902729795657208
6091825 -0.2814718994604697 -0.8845827909806466
6111525 -0.2943317260362527 -0.8793511603066205
6131325 -0.3075593832307803 -0.8729899441481134
6151125 -0.321618615345704 -0.8663646329001862
6170925 -0.33537852441758487 -0.859316463321607
6190625 -0.3492222345442155 -0.8520418735973799
6210425 -0.3629920541285903 -0.8443963933818935
6230225 -0.37729596795172227 -0.8361060977172184
6250025 -0.39197687177541124 -0.8277331652261193
6269725 -0.4058863324786354 -0.817977266091812
6289525 -0.4203847645513784 -0.8084655470924199
6309325 -0.4348013184208704 -0.7976868181605747
6329125 -0.449454317284825 -0.7862813571800923
6348825 -0.4639151916967741 -0.7742497761828948
6368625 -0.4790925664192429 -0.7613783510853254
6388425 -0.4943936503064947 -0.7476846233869211
6408225 -0.508208101155415 -0.7334738654953049
6427925 -0.5221562828720105 -0.7179771004362278
6447725 -0.5365630691834683 -0.7022642713836288
6467525 -0.550498903343021 -0.6850030560043197
6487325 -0.5634926290618016 -0.6666932900317124
6507025 -0.5773308793238517 -0.6481595000779817
6526825 -0.5903893424572204 -0.6286103709652
6546625 -0.602882352682925 -0.6077360819525981
6566425 -0.614901420204596 -0.585936876195847
6586125 -0.626568306883785 -0.5630286329178043
6605925 -0.6373474502676159 -0.5385420666621324
6625725 -0.6474516659120533 -0.5129463626923028
6645525 -0.6566634041265401 -0.486052440607351
6665225 -0.6643495948049973 -0.4574690778634875
6685025 -0.6708349862723415 -0.4276457625369969
6704825 -0.6752979438114635 -0.39612922756151
6724625 -0.6781519401708885 -0.36397081735433007
6744325 -0.678630853383019 -0.3302678179485058
6764125 -0.6768637007783997 -0.2958835852618552
6783925 -0.6723038181792876 -0.26038692349310566
6803725 -0.6648493186683968 -0.2247547274973944
6823425 -0.6541538862250211 -0.1888882635366677
6843225 -0.6402361862947548 -0.15273411221302582
6863025 -0.6224906362268343 -0.1175699998753072
6882825 -0.6006268533330437 -0.08368535552193236
6902525 -0.5752180404628001 -0.05106231625115043
6922325 -0.545355608239943 -0.020826239529747572
6942125 -0.5111616735158401 0.005949380382427231
6961925 -0.4737792326790975 0.027998605507540787
6981625 -0.43396779542892133 0.04449233037165905
7001425 -0.3926165662067609 0.05512551077316242
7021225 -0.35072646849053746 0.059406220479438644
7041025 -0.3094421682151582 0.05650345845103474
7060725 -0.27100382012624463 0.04797722365211435
7080525 -0.23576665261198773 0.03302264234071756
7100325 -0.20568284610470006 0.011993074079317542
7120125 -0.18076306730685926 -0.012274448402249073
7139825 -0.16293506689690881 -0.03940287250818048
7159625 -0.1519782096220459 -0.06759363449490166
7179425 -0.14793175246562307 -0.0956882348952275
7199225 -0.1506620930390533 -0.12205590423388975
7218925 -0.15915259786184047 -0.14470826958536087
7238725 -0.1726606002904478 -0.16344864249064342
7258525 -0.18949484477465087 -0.17697675671547314
7278325 -0.20879098405675128 -0.18565978626387628
7298025 -0.22979381808372956 -0.18875497720194953
7317825 -0.25098931074811975 -0.1870112398881228
7337625 -0.27183042275924885 -0.17981125541751783
7357425 -0.2912547474040441 -0.16897796531217557
7377125 -0.3093465028441736 -0.1533738625684571
7396925 -0.32509722512189715 -0.13458145684885495
7416725 -0.33828023621964065 -0.11270369871351803
7436525 -0.3485406800542273 -0.08784167541051548
7456225 -0.35534905676265005 -0.061892328938319745
7476025 -0.3588575159238669 -0.03439813108160334
7495825 -0.3595152985693308 -0.006032934801181346
7515625 -0.35723661454382344 0.02317185217423452
7535325 -0.35127450206604116 0.052165372311495706
7555125 -0.34307763313688433 0.08061146396156212
7574925 -0.3319233417617184 0.10912994946397143
7594725 -0.3177640050045503 0.1362262393755906
7614425 -0.3015719319637338 0.16258205786594565
7634225 -0.2833260612959378 0.1876052037686145
7654025 -0.2627452835719424 0.21121814524123572
7673825 -0.24080203955677362 0.2336262709835195
7693525 -0.21748400359738437 0.2541885404145251
7713325 -0.1921636023782028 0.27341198506080205
7733125 -0.1660254203473027 0.2914419716271728
7752925 -0.13856128324577477 0.3078034907101666
7772625 -0.11036749047196627 0.3225114861873554
7792425 -0.08090936375980647 0.3362133243837261
7812225 -0.05034040654372399 0.34816079544312634
7832025 -0.019095887066374453 0.359164623332267
7851725 0.013761977941730721 0.3686425579107637
7871525 0.04714307377612303 0.3770472796954779
7891325 0.0821201964905584 0.3834292513626866
7911125 0.1178398005764905 0.3876187503660416
7930825 0.1544274267869573 0.3902528848127604
7950625 0.19217891603581244 0.39012807695494284
7970425 0.2302030578770743 0.38723389061486246
7990225 0.26816214397571125 0.38152051290366445
8009925 0.305823371971261 0.37298017778402703
8029725 0.34308438323602164 0.3624730349640165
8049525 0.37933112412662223 0.3491777072158715
8069325 0.41496444416668227 0.3335305217810464
8089100 0.4557918156636275 0.3146256227094334
8108800 0.4877665773296272 0.29443540609011176
8128600 0.5184851487983734 0.2722348649128785
8148400 0.5478538507230453 0.24858119863592745
8168200 0.575191106738642 0.22313403513392344
8187900 0.6007980218239226 0.19615885277879622
8207700 0.6244323802575366 0.16827424160927681
8227500 0.6458843499192898 0.13937141424412844
8247300 0.6654098439044582 0.10957860838303372
8267000 0.6828938892560117 0.07929549506092812
8286800 0.6984518402067877 0.04842472378969662
8306600 0.71228928539944 0.016904344561435174
8326400 0.7237302051927051 -0.014569828745595387
8346100 0.7334129901934866 -0.04617165963147319
8365900 0.7414158455694922 -0.07720301858766707
8385700 0.7474366705115754 -0.1083634143154953
