# Hz S RI R 50
100000 0.9974951331062213 -0.023892287791850892
119700 0.9982245798989606 -0.02876769924780562
139500 0.9972459882685323 -0.03353727156136678
159300 0.9968094689698408 -0.0380307577078934
179100 0.9965958347919427 -0.04256351066488067
198800 0.9966931042779563 -0.04753947692118864
218600 0.9959924736029646 -0.05207607160326445
238400 0.9964825567013976 -0.05680849632495855
258200 0.9956310907701604 -0.061512001014421086
277900 0.9952463202641222 -0.06582943193124936
297700 0.9949700511441961 -0.07057906483456791
317500 0.9948084483655069 -0.07533366263348605
337300 0.9942465240433916 -0.08004663141878199
357000 0.9939980836055069 -0.08475369595374868
376800 0.9936963402535159 -0.08940698833881641
396600 0.9932209353353018 -0.09407151141254831
416400 0.9923104793582993 -0.09874106120171366
436100 0.9921702854211976 -0.10351357296118137
455900 0.9915609097532272 -0.10805345570785047
475700 0.9907706299712808 -0.1126781236050729
495500 0.9907045318947207 -0.11738888060712482
515200 0.9897045680401673 -0.12208903679185913
535000 0.9893450866874943 -0.12649365190685521
554800 0.988892343353018 -0.1312357401755582
574600 0.9882000134508946 -0.13588308454937792
594300 0.9874967699839248 -0.14067775044239145
614100 0.9868320329737315 -0.1452551513392712
633900 0.9862428678357791 -0.1500950495548128
653700 0.9854874796771872 -0.15459043923000051
673400 0.9847284945636084 -0.159249496666525
693200 0.9836780278047706 -0.16366514811445154
713000 0.9832903250740319 -0.16861770277215785
732800 0.9822521781352697 -0.17303360770261536
752500 0.9814755527270834 -0.1778097712557796
772300 0.9806984040469898 -0.18217435079864713
792100 0.9799685130507282 -0.18697867439129065
811900 0.9787365613033537 -0.19164815741985808
831600 0.9780372995697528 -0.19592344093681938
851400 0.9771775388566258 -0.20093064035256256
871200 0.9754422017379827 -0.20537987789545017
891000 0.9748286578874049 -0.21025807904927787
910700 0.9738057955981734 -0.21505694591294877
930500 0.9726592200871044 -0.2194667343365327
950300 0.9719603819844451 -0.22406736369228158
970100 0.9706342803962873 -0.2284638470940134
989800 0.9695827649425208 -0.23303670976132143
1009600 0.9683023519189343 -0.237760786009379
1029400 0.9671921529107238 -0.24262767001612398
1049200 0.9661400879684734 -0.24690391359744057
1068900 0.964915107593104 -0.25172017197638824
1088700 0.9634817148486805 -0.2562339454301452
1108500 0.9626671763304784 -0.2607703037637991
1128300 0.9609670102659248 -0.2653869773068166
1148000 0.9597064534183012 -0.269983590539512
1167800 0.9584239043448701 -0.2747246936992858
1187600 0.9569720231481066 -0.27906582406312996
1207400 0.9558751992507762 -0.28381968287267595
1227100 0.9541801055011595 -0.2882828945253523
1246900 0.9528669284926781 -0.2928054856724249
1266700 0.9514746786589343 -0.2972122541568709
1286500 0.950023623608838 -0.30218835371169334
1306200 0.9483968903333974 -0.3066154067489079
1326000 0.9472996709416003 -0.3111355236997293
1345800 0.9454313692100619 -0.3160619548129806
1365600 0.9438412708990376 -0.3204449538649075
1385300 0.9422795965778061 -0.3249900125055619
1405100 0.9408743670560132 -0.32930821715427
1424900 0.939014477253326 -0.33395007264865917
1444700 0.9374002512144044 -0.33852607574533417
1464400 0.9357670195535283 -0.3430067104746865
1484200 0.9341970961189687 -0.3477209933378702
1504000 0.9322438211053663 -0.35213064738927113
1523800 0.9304421509543326 -0.35669561779579806
1543500 0.9288463028078461 -0.3613716285951859
1563300 0.9268997962377343 -0.36585098973614333
1583100 0.92552313421486 -0.3702234725814343
1602900 0.9230488619534573 -0.3750148031300294
1622600 0.9211333223582409 -0.37934100882336735
1642400 0.9193962705053876 -0.3838346850578074
1662200 0.9176770237368762 -0.3884683715160947
1682000 0.9155642994152211 -0.3926712189580052
1701700 0.9138452019668206 -0.3975619083348814
1721500 0.9115030858912644 -0.4017712680732572
1741300 0.9099419907367873 -0.4062917564596992
1761100 0.9075139414412038 -0.4109896071083312
1780800 0.9057540962417471 -0.415038505015159
1800600 0.9035485895553432 -0.4199959297988915
1820400 0.9011078812607588 -0.4241602404005946
1840200 0.8990904308002375 -0.4284489549966558
1859900 0.8969639122535182 -0.43353201443781353
1879700 0.8949917016567351 -0.43768500499688834
1899500 0.892749207482813 -0.4422794890461823
1919300 0.8902233447878376 -0.446514983209992
1939000 0.8878975031341426 -0.4511350103483775
1958800 0.8857646521251896 -0.4556048287121327
1978600 0.8835598457219269 -0.4598269252838216
1998400 0.8811693497311976 -0.4645557940420331
2018100 0.8785658779528289 -0.46856560715007767
2037900 0.8764291472468755 -0.47304296057146367
2057700 0.8738249153162708 -0.47786411568285075
2077500 0.8711962261967356 -0.48210858525540373
2097275 0.8690860243983458 -0.4867340045729122
2116975 0.8662419994300781 -0.49076475401149333
2136775 0.8635358438744776 -0.4952217988422806
2156575 0.8611284690124438 -0.499407843028542
2176375 0.8586993929863076 -0.504213150950945
2196075 0.8559045486254843 -0.508606989562323
2215875 0.8533416626724709 -0.5126888586225621
2235675 0.8505519129582272 -0.517154423913239
2255475 0.8479000191759309 -0.5215126825093059
2275175 0.8450863547088044 -0.5259570678290216
2294975 0.842268072240764 -0.5302589825066415
2314775 0.8391388171189235 -0.5346940375834732
2334575 0.8367340802999133 -0.5389231976514256
2354275 0.8337970538213877 -0.5434895920449798
2374075 0.8307398278496008 -0.5476381189085092
2393875 0.8278386445254884 -0.5520940996835916
2413675 0.8250596900971072 -0.5562389346650246
2433375 0.8220163479150456 -0.5607525789960616
2453175 0.8188720678764463 -0.565069254999115
2472975 0.8158684624190597 -0.56915651467163
2492775 0.8128427547711874 -0.5736735534336594
2512475 0.8096930541573678 -0.5781576193642439
2532275 0.8063724480469812 -0.5819887916854288
2552075 0.8033575438366056 -0.5865001118319879
2571875 0.8002063431219417 -0.5906864799086848
2591575 0.7967999154532045 -0.5952529278372772
2611375 0.7932619363076774 -0.599310900818478
2631175 0.790195394300659 -0.6034750499701945
2650975 0.7866522837134173 -0.6076892414084768
2670675 0.7835328681956193 -0.6119075446444798
2690475 0.7795668591601678 -0.6163725411575153
2710275 0.77658513810851 -0.6203231663160422
2730075 0.773037664042022 -0.6245193691275878
2749775 0.7694497448113126 -0.6285288122708734
2769575 0.7660598221435205 -0.6332201343710064
2789375 0.7621514445479713 -0.6374286931740784
2809175 0.7587051149171316 -0.6414501964483452
2828875 0.7551170492123072 -0.645769210791053
2848675 0.75129348832999 -0.6500317047082311
2868475 0.7476906926522727 -0.6542146634946264
2888275 0.7440888032005919 -0.6583584603692489
2907975 0.7399504063414739 -0.6624484039813354
2927775 0.7358844839941847 -0.666501317563278
2947575 0.7320606613058005 -0.6709975858068038
2967375 0.7282603914242323 -0.6751990844968605
2987075 0.7242921102156622 -0.6791748110342527
3006875 0.7201020538333197 -0.6835543073984612
3026675 0.716038758539408 -0.6875677203017985
3046475 0.7114564120451274 -0.691490640856499
3066175 0.7072907776082783 -0.6956246861907053
3085975 0.7030047507151074 -0.6995941525154736
3105775 0.698590241493128 -0.7036742405463432
3125575 0.6941262866554506 -0.7076670123934952
3145275 0.6896078934443987 -0.7114744769092302
3165075 0.6854746342779173 -0.7153721186320905
3184875 0.6804754581005792 -0.7193475993689888
3204675 0.6754990524505037 -0.7227914128598579
3224375 0.6713529961513196 -0.7259217923435749
3244175 0.6670725876946365 -0.7293252585268827
3263975 0.6632596791359823 -0.7333611017667291
3283775 0.6592648061757226 -0.7367817307202721
3303475 0.6550472393855725 -0.7407654463381517
3323275 0.6507501649280699 -0.7448828563184167
3343075 0.6465100538110896 -0.7494616669988144
3362875 0.6416097447020317 -0.7534952236171464
3382575 0.6368294809225152 -0.7576629195517481
3402375 0.6320838272890017 -0.7617365825495606
3422175 0.627246610041671 -0.7660994977272828
3441975 0.6222954958509069 -0.7699170112567385
3461675 0.6172166626900459 -0.7736473977565153
3481475 0.6123576451516218 -0.7777314555092576
3501275 0.6069026001388691 -0.7819567069489599
3521075 0.601348512594123 -0.7859924853167696
3540775 0.596185404063741 -0.7897941781671891
3560575 0.5906044016228013 -0.7937039909949658
3580375 0.585272915992061 -0.7977276808853838
3600175 0.5796175393718173 -0.8016941606715282
3619875 0.5738137920507137 -0.8048022305271193
3639675 0.5681734129971383 -0.8090335556514963
3659475 0.5626478226414029 -0.8128765700726781
3679275 0.5564838293179935 -0.816571161020039
3698975 0.550761393610408 -0.8202259837139652
3718775 0.5442723845387365 -0.824256729836827
3738575 0.5386847496999787 -0.8277838585206783
3758375 0.5321590487281743 -0.8313258720265932
3778075 0.5261597378284649 -0.8348486263365614
3797875 0.5202928949866833 -0.8386839767671147
3817675 0.5136467003779155 -0.8422882453051137
3837475 0.5068974012747316 -0.8457480148539442
3857175 0.5006627279878023 -0.8495499026824532
3876975 0.4937109925701933 -0.8529215773599073
3896775 0.4867593278163348 -0.8562497630267882
3916575 0.4804531343971703 -0.859790283473967
3936275 0.47372768441711727 -0.8632831253164036
3956075 0.4662723571543935 -0.8670843470970734
3975875 0.45925255888138194 -0.870380074335454
3995675 0.4519462060763834 -0.8734610589059041
4015375 0.44455282543866 -0.8771749455387847
4035175 0.4369408488496711 -0.8805074878506338
4054975 0.42903518826013953 -0.8838714286003962
4074775 0.4216560037756934 -0.8872143564264847
4094550 0.41348355697960976 -0.8903958972800282
4114250 0.4056815025200404 -0.8935211834211207
4134050 0.3969026256468814 -0.8962204079190962
4153850 0.38884385845731584 -0.8996908035710889
4173650 0.3800991658370764 -0.9030557853314346
4193350 0.37168074973163084 -0.9056242667216721
4213150 0.3623011270060999 -0.9087713602322658
4232950 0.35312575804694424 -0.9116285667897349
4252750 0.3439244850959943 -0.9144571132443056
4272450 0.3346156689763693 -0.9171331836024775
4292250 0.32439817676614346 -0.9198942095027353
4312050 0.31444633266984745 -0.9226419021688846
4331850 0.30378355176480865 -0.9249475240121975
4351550 0.29351577144085544 -0.9273556312680686
4371350 0.28255578996382474 -0.9295356651683921
4391150 0.27124841339821043 -0.931201722094442
4410950 0.2592564154331911 -0.9331704026974553
4430650 0.24767387603270766 -0.9349377137050645
4450450 0.23529185643380715 -0.936756846484115
4470250 0.22203826740917354 -0.9376872441578284
4490050 0.209110472839045 -0.9388554414304191
4509750 0.19543273936983183 -0.9395397234806063
4529550 0.18129218027119126 -0.9396241571641986
4549350 0.16681938475247138 -0.9394676078202197
4569150 0.15179461938524566 -0.9385844106723218
4588850 0.1351680830353164 -0.9372744695659658
4608650 0.11951949618712975 -0.9353141924271571
4628450 0.10192201712950937 -0.9329213532535611
4648250 0.08436768733257975 -0.929307289198944
4667950 0.06583917739095049 -0.9241907150685299
4687750 0.046717074358333825 -0.9184555523578106
4707550 0.02656923425686453 -0.9114033511546596
4727350 0.006122675734961498 -0.901593820792682
4747050 -0.014619117619887772 -0.8899188233407035
4766850 -0.03563778019624044 -0.8759211062651566
4786650 -0.05728359540983292 -0.8587150249360326
4806450 -0.07802378048913122 -0.8381406311474742
4826150 -0.0976586835844669 -0.8144843115531842
4845950 -0.11527694900497953 -0.7861122004311987
4865750 -0.13021819714998084 -0.7536378160786541
4885550 -0.13997760124010178 -0.7170966049977654
4905250 -0.1450127960910984 -0.6775284023142907
4925050 -0.14168797959370738 -0.6346964368437134
4944850 -0.12968369445204797 -0.591209469793866
4964650 -0.10777652001494765 -0.5498936610753234
4984350 -0.07608298626156926 -0.514247273082815
5004150 -0.03570267687113763 -0.4867934664016084
5023950 0.009208518496790483 -0.47050586544411904
5043750 0.05619202499806946 -0.46662503287555424
5063450 0.09990775990970951 -0.47409337273656804
5083250 0.13882734343026282 -0.490936585184194
5103050 0.17005640415723006 -0.5148591894940083
5122850 0.19307311796288343 -0.5433179269057077
5142550 0.20839274560576704 -0.5731069898754148
5162350 0.21682421093983514 -0.6027898322355124
5182150 0.2201382135337431 -0.6315351808220993
5201950 0.2186154055958162 -0.6588116746180167
5221650 0.21342025160593092 -0.6837406229428983
5241450 0.20502043796974026 -0.7064924736284494
5261250 0.1940767501220929 -0.7274100575781066
5281050 0.18120321503653442 -0.745945838319948
5300750 0.16676013267764592 -0.7623578738929578
5320550 0.15180701887414227 -0.7771769325032662
5340350 0.135608027301901 -0.7893535352210236
5360150 0.11857540047379272 -0.8003995956203663
5379850 0.100994248009534 -0.8099083527775222
5399650 0.08307176075350335 -0.8182763056571365
5419450 0.06479821743279784 -0.8247483457708709
5439250 0.04599710667559757 -0.830419889794577
5458950 0.02716110682224466 -0.8349298240900577
5478750 0.007715776888183419 -0.8379091031041672
5498550 -0.011905715528049199 -0.8398705511543019
5518350 -0.03146410212204851 -0.8415629886794133
5538050 -0.05124183505905934 -0.8417115930648194
5557850 -0.07151341137936272 -0.8412052294441476
5577650 -0.09139096027229184 -0.8392142274837877
5597450 -0.11205308117838875 -0.8368415761603277
5617150 -0.13277040011712457 -0.833774675044927
5636950 -0.15294609074627294 -0.8293330160418141
5656750 -0.17439836344221982 -0.823737267717448
5676550 -0.19590897906928623 -0.8174648454534569
5696250 -0.21716369822021683 -0.8102841509506706
5716050 -0.23822101651645985 -0.801396903565504
5735850 -0.2601613119168054 -0.7921644599586312
5755650 -0.2817178595756872 -0.781250182084014
5775350 -0.30339748829637 -0.7692352002609318
5795150 -0.32552474075456617 -0.756547572734796
5814950 -0.34729103774445813 -0.7421044421387524
5834750 -0.3694675226050839 -0.7263567514030618
5854450 -0.3911643381513833 -0.7093137472637929
5874250 -0.41267121876159546 -0.690626199863146
5894050 -0.43430412168243837 -0.670334532075649
5913850 -0.45545631499492223 -0.648665483235764
5933550 -0.4763324020520084 -0.6251462416858733
5953350 -0.49684820627130294 -0.6000318249711879
5973150 -0.5165777041444769 -0.5730654593247596
5992950 -0.5362077381457374 -0.5435647825268605
6012650 -0.5540284196819308 -0.5125324032472175
6032450 -0.5714488024038876 -0.4786796986799748
6052250 -0.587627089004428 -0.44348506564098217
6072050 -0.6015889676787576 -0.4052642143517924
6091825 -0.6145358602180436 -0.36513980553135855
6111525 -0.6244211014056174 -0.3231049124211183
6131325 -0.6320898246176485 -0.27794759506681294
6151125 -0.6368986060383303 -0.23110306961030053
6170925 -0.6385333984872148 -0.18222112449163938
6190625 -0.6366303638409141 -0.1317159743725065
6210425 -0.6308228396741945 -0.07974279457893464
6230225 -0.6212145008229514 -0.02603709839768624
6250025 -0.6060460852708913 0.028168646999391856
6269725 -0.5857324438456396 0.08307066563766036
6289525 -0.5596614901822833 0.13748633691822224
6309325 -0.5276800014038193 0.19098964340087876
6329125 -0.48993510111409716 0.24222492990136288
6348825 -0.4463173230741513 0.2904118789550638
6368625 -0.39696455540153086 0.3348619366271622
6388425 -0.34295486584286616 0.3742770416025762
6408225 -0.2845993985888188 0.40725703207547953
6427925 -0.22323290124277564 0.43501655955181384
6447725 -0.1596570697294171 0.45514326340929506
6467525 -0.0947196869592227 0.46949572922814153
6487325 -0.026971467916933528 0.4736356338042558
6507025 0.03497374210192885 0.4775537675198937
6526825 0.09866958544062443 0.4720188728128624
6546625 0.15987070896965214 0.46084805887250957
6566425 0.2188461881491763 0.44415233560468853
6586125 0.27423966380262216 0.42279097068528587
6605925 0.3265269031297647 0.396987133413339
6625725 0.3746865118927343 0.36714160172500765
6645525 0.41931447928322924 0.3337530723819035
6665225 0.4589316723384852 0.2979865880673259
6685025 0.49442032628710203 0.26021388066431195
6704825 0.5255162064350574 0.22071678728211375
6724625 0.5516363312681014 0.1797234735212372
6744325 0.5739188937759554 0.13874408238865632
6764125 0.591713632398655 0.09714556335084143
6783925 0.605471298996235 0.056071472847110886
6803725 0.6155399123502036 0.015640803300523736
6823425 0.6223294952699666 -0.023798073977294876
6843225 0.6254967673255469 -0.06223641704891792
6863025 0.6260988157114056 -0.09982270754265163
6882825 0.6237560834221447 -0.13547725528094198
6902525 0.6189646349089162 -0.16981011504261878
6922325 0.6113477331460099 -0.20287799266227793
6942125 0.6013592340658498 -0.23371202043565847
6961925 0.5888407216865725 -0.26285284381269
6981625 0.5743487176652805 -0.28943347395409075
7001425 0.5580478756425171 -0.3140269867032064
7021225 0.540458677438799 -0.33547150456669655
7041025 0.5213386897641812 -0.35521737620084903
7060725 0.5007579198598423 -0.37192976289569896
7080525 0.47960538003611963 -0.38645937813071457
7100325 0.4579991250549684 -0.3982409537270277
7120125 0.4347395240028609 -0.40675411367505027
7139825 0.4114411932029268 -0.4123952979256036
7159625 0.387795474496398 -0.41424750967712715
7179425 0.36489538544702493 -0.4127739646603236
7199225 0.3422595476060162 -0.40743409666963964
7218925 0.3212205205720481 -0.3986876295212658
7238725 0.3018668960615351 -0.38627889855989456
7258525 0.2857819831891047 -0.3699019670293461
7278325 0.27307893056994526 -0.3507210156775013
7298025 0.2647609876972459 -0.3290421155728359
7317825 0.2611370938518209 -0.3059256039373964
7337625 0.2627189763315383 -0.28203783267972565
7357425 0.2700258180567195 -0.25881897256104464
7377125 0.28152995116895824 -0.23692581180923417
7396925 0.2976764844582341 -0.21811086055980947
7416725 0.31772805741420557 -0.20285999159554244
7436525 0.33990773117257117 -0.19151466601434955
7456225 0.3636135133716725 -0.18506832851039065
7476025 0.38842828993938167 -0.1821973759677555
7495825 0.4129530361512058 -0.18331532120565946
7515625 0.43535818976816554 -0.18805168323425436
7535325 0.4572572346756251 -0.19525497503521652
7555125 0.47727700768113174 -0.2048228978531159
7574925 0.495763030874153 -0.21622640642306082
7594725 0.5124889978125973 -0.22945954397926438
7614425 0.5275575227305696 -0.24356700304933024
7634225 0.5408503560077215 -0.2588165650123163
7654025 0.5526870881301651 -0.27441173195611895
7673825 0.5630468590618758 -0.29103730672532363
7693525 0.5716121917996619 -0.3072229847159431
7713325 0.5790849570764853 -0.3234084227612088
7733125 0.585614903130025 -0.3397186012410799
7752925 0.5910145930601075 -0.3552532546857667
7772625 0.5956940082773549 -0.37135578901178656
7792425 0.5999616169415992 -0.3870890469138038
7812225 0.6033371221670779 -0.4030149004553029
7832025 0.605951881399476 -0.4186055356115079
7851725 0.6086464233173597 -0.43422963110774104
7871525 0.6100340883377169 -0.45010652974040133
7891325 0.6112672641044594 -0.46589738003945436
7911125 0.6114812468100599 -0.48209212137291113
7930825 0.6115411336464702 -0.4976317520016302
7950625 0.6104653778164005 -0.5130007829245178
7970425 0.6086378561369157 -0.5291225288134389
7990225 0.60554147202538 -0.5444694048483552
8009925 0.602586040915824 -0.559454915886057
8029725 0.5986346187853968 -0.5744592202010135
8049525 0.5943037004165103 -0.5883138300899895
8069325 0.5896134553795486 -0.602624265257992
8089100 0.5841294051300873 -0.6150731851226044
8108800 0.578650054921682 -0.6283623155828438
8128600 0.5726797636367951 -0.6411759487569121
8148400 0.5665340614007466 -0.6530696284519659
8168200 0.5603180675856048 -0.6654140758224237
8187900 0.5535152484334994 -0.6766845182935703
8207700 0.5467652186037631 -0.6882461569196224
8227500 0.5397071107146509 -0.6992633757429514
8247300 0.531958830242975 -0.7099156457936875
8267000 0.5249620587305474 -0.7205031728375383
8286800 0.5170691302150349 -0.7304199228539542
8306600 0.5090184940714167 -0.7400832133928772
8326400 0.5006947914216963 -0.7500865233350902
8346100 0.4926683852059041 -0.7587138283313895
8365900 0.48463480179335927 -0.7673626775519516
8385700 0.4760546134523125 -0.7762450940641827
8405500 0.4673923714920945 -0.7845197964667128
8425200 0.4585660357858635 -0.7924154678109536
