# Hz S RI R 50
100000 0.9981342888267092 -0.024469784295355748
119700 0.9980744298306544 -0.02860637415072829
139500 0.9976278051057647 -0.03344008281132935
159300 0.9972253387068211 -0.03801730759244053
179100 0.9970427222547535 -0.04268902909681609
198800 0.996987476993373 -0.047465034007220644
218600 0.9966506556389421 -0.05213574460772928
238400 0.9967502921117941 -0.05680671294295028
258200 0.9960644995049559 -0.06157587186312923
277900 0.9956306044017151 -0.06587720078852298
297700 0.9954171442071972 -0.07075759381544285
317500 0.9951328527707852 -0.07547801218944693
337300 0.9945716863450601 -0.08014530332625083
357000 0.9943820841195845 -0.08516190938286876
376800 0.994033626661098 -0.08977878940797711
396600 0.9935396508056566 -0.09457371668562534
416400 0.9927629848579799 -0.0991175624796723
436100 0.9924634859050919 -0.10384604000662792
455900 0.9918978164579492 -0.10841365599265587
475700 0.9912239876529315 -0.11342360127739329
495500 0.9909480991940864 -0.11819668713143953
515200 0.9898848234796256 -0.12286623081331734
535000 0.9894565567687129 -0.127693691623383
554800 0.9892038747289346 -0.13239101915623602
574600 0.9885651647500511 -0.1371935976809812
594300 0.9875453379259914 -0.14205548916618213
614100 0.9869383661242284 -0.14679846607675537
633900 0.9863922224023401 -0.15171420585365497
653700 0.9855370502746825 -0.15667201753606755
673400 0.9846909049420267 -0.1613616788807573
693200 0.9836691267525943 -0.1659446506706678
713000 0.9830501298216152 -0.17112194062449357
732800 0.9819994457632957 -0.17570021616028847
752500 0.9814019253130564 -0.18073288962311554
772300 0.9804219542537066 -0.1854261385212249
792100 0.9793757801504773 -0.19066442355907492
811900 0.9783878003309637 -0.19540258239017064
831600 0.9772641580555985 -0.20026402438666385
851400 0.9763929441574272 -0.20533250869777814
871200 0.9749077753511671 -0.21024995458984533
891000 0.9738996044913003 -0.21555196201602372
910700 0.9728428623933806 -0.22050725986957023
930500 0.971336857642827 -0.22516211614992154
950300 0.9706631258806128 -0.23046725454627143
970100 0.9692227262417205 -0.2355086025778652
989800 0.9679838164186694 -0.24050092772565485
1009600 0.9665822878472855 -0.24569339559176165
1029400 0.965298637222142 -0.25104360755539024
1049200 0.9642558699958275 -0.25590119800951455
1068900 0.962514404870622 -0.2612195727291207
1088700 0.9609662768613244 -0.26664718255818
1108500 0.9596795018771503 -0.27164946850668037
1128300 0.9581390539624927 -0.27702232955270023
1148000 0.9562601145978568 -0.282502584768659
1167800 0.9549702459925515 -0.2878719279387349
1187600 0.9529152425741446 -0.2932160737545268
1207400 0.9514685243001736 -0.2987776970479898
1227100 0.9494583706927833 -0.304170896589585
1246900 0.9478601351773374 -0.30968025559917867
1266700 0.94579530296058 -0.3150035273877784
1286500 0.9437621464973518 -0.321003044587421
1306200 0.9419765849937366 -0.3264976567606222
1326000 0.9402155624845814 -0.3321612210007612
1345800 0.9378481474437502 -0.338293314385046
1365600 0.935620524996493 -0.3438429664449122
1385300 0.9332523445782778 -0.3500307646284978
1405100 0.9312403320023223 -0.3554718654293757
1424900 0.928595067123366 -0.36167017730837525
1444700 0.9262115994472311 -0.3678313091499678
1464400 0.9235616214507104 -0.37392502963167035
1484200 0.9209538102236846 -0.3801959592242542
1504000 0.9181075596188378 -0.38650283563193166
1523800 0.9151499163247928 -0.39277243160943726
1543500 0.9122445751377327 -0.3993585804529795
1563300 0.9093174423408356 -0.4059906808521168
1583100 0.9064280210697755 -0.4127475005790806
1602900 0.9025939485209762 -0.41943399538655773
1622600 0.8993335917720011 -0.42628343404177965
1642400 0.8959263526388265 -0.4334138035896985
1662200 0.8926418492376857 -0.44099917544488326
1682000 0.8885556987544321 -0.4478974006056158
1701700 0.8848100249081938 -0.4558994917550275
1721500 0.880153089203677 -0.4633688525424144
1741300 0.8760528545189352 -0.47127943742786177
1761100 0.8712263141989433 -0.4796399561346531
1780800 0.866413081541714 -0.4875291890749092
1800600 0.8615881552483104 -0.4966852183257355
1820400 0.855648409416081 -0.5050397639668052
1840200 0.8499771836413895 -0.5140868208211498
1859900 0.8438412109438235 -0.5238683189246527
1879700 0.8375088530500517 -0.5335972375173416
1899500 0.8305555860332893 -0.5435852587411143
1919300 0.8229902250477649 -0.5540140312503742
1939000 0.8150396830385553 -0.5648862117370824
1958800 0.8063327967007147 -0.5762895629934822
1978600 0.7971854612647878 -0.5881907144431172
1998400 0.7869831769546171 -0.6004424069834494
2018100 0.7757416942107802 -0.6133609582332805
2037900 0.7636235110718053 -0.6265187031239592
2057700 0.7500127981220792 -0.6411017738845659
2077500 0.7351110584564738 -0.6561612854084131
2097275 0.7187055335407277 -0.6719393657789572
2116975 0.7000059329052707 -0.6885971493032598
2136775 0.679167518970602 -0.7064909800189383
2156575 0.6553291397317692 -0.7252260999510374
2176375 0.6280483181811778 -0.7450027875154634
2196075 0.5964231973950487 -0.7661178746086859
2215875 0.559424491145598 -0.7872919674828288
2235675 0.5157867700639057 -0.8097707926387621
2255475 0.4635179214498289 -0.8322346761270915
2275175 0.40134329942105923 -0.8535705009252303
2294975 0.3246613007510082 -0.8722124555734508
2314775 0.23039292376515658 -0.884055151071748
2334575 0.1151785750278165 -0.8841276593991971
2354275 -0.02565238086215507 -0.8595591634428302
2374075 -0.19110216321435408 -0.7937079126126837
2393875 -0.3716746129963424 -0.6611307450295015
2413675 -0.5307660630735385 -0.43690780705341287
2433375 -0.6046900356737829 -0.12059918053202345
2453175 -0.530024350644567 0.22900878307492778
2472975 -0.30706911528904424 0.5076899782780788
2492775 -0.01800330314452623 0.6502245779439764
2512475 0.2521929766494465 0.6710506197155978
2532275 0.46653876966264457 0.6180417168762664
2552075 0.6216840385306214 0.534017457482052
2571875 0.7289413714301667 0.4428782750065668
2591575 0.8021840149961155 0.3567608589906419
2611375 0.8523759142385764 0.27785022239096524
2631175 0.8874345131543458 0.20972226197436913
2650975 0.9129695176145657 0.14781751981062347
2670675 0.9288024395512032 0.09324553681750418
2690475 0.9390952945293098 0.044886126320227177
2710275 0.946086548551116 0.0028531605442812086
2730075 0.9496958453223358 -0.034973829429249356
2749775 0.9517961095638966 -0.06811376828747101
2769575 0.9520096407817451 -0.098807533874499
2789375 0.9511081110760583 -0.12624439195553278
2809175 0.9496893923844357 -0.1513998508562602
2828875 0.9474087302013992 -0.1741464925405411
2848675 0.9445673179489775 -0.19562375282926736
2868475 0.9413878680783692 -0.2153284113759818
2888275 0.9380934214022875 -0.2337199792790466
2907975 0.9339684529786545 -0.2508622622019662
2927775 0.9298791716453566 -0.2667306536440473
2947575 0.9257666994076403 -0.28220805890622924
2967375 0.9210483209199235 -0.2965907416189709
2987075 0.9161872663917251 -0.30992991066242986
3006875 0.9106902786859301 -0.32308812030050643
3026675 0.9052120364135143 -0.33531876854907533
3046475 0.8992496355369973 -0.3471563603368236
3066175 0.8927770351161385 -0.35840797256994533
3085975 0.88600837045975 -0.3688789479470567
3105775 0.8781673358816078 -0.37886306694369415
3125575 0.8698759975036247 -0.3878497554927801
3145275 0.8605800044912586 -0.3959414148853437
3165075 0.8508027374773671 -0.4021920926785773
3184875 0.8390441612227242 -0.4072737973192403
3204675 0.8271348653104516 -0.40873919837765293
3224375 0.815585871675739 -0.40632281283836535
3244175 0.8062757447371732 -0.39939707687525144
3263975 0.8018449011615005 -0.38934010108997014
3283775 0.8044970570670793 -0.3772127363893917
3303475 0.8143299896401422 -0.36896560526133365
3323275 0.827990191600367 -0.3673386359735651
3343075 0.8410230465624985 -0.3719162467586611
3362875 0.8517860949782392 -0.38099601847701187
3382575 0.8589469478961129 -0.3923207452746218
3402375 0.8632672704939405 -0.4047033497137623
3422175 0.86541499698077 -0.4163916845958289
3441975 0.8659905386912836 -0.42780605718244064
3461675 0.8648758216916735 -0.438429699740597
3481475 0.8633508708444081 -0.44856888297438763
3501275 0.8609789022075675 -0.45812019988333547
3521075 0.8584172895212193 -0.46698180841382475
3540775 0.855359987859651 -0.4752172943612689
3560575 0.8522293991068384 -0.4830121608216376
3580375 0.8489342039559862 -0.49063299910193514
3600175 0.8454924707648483 -0.4976762686296414
3619875 0.8417073621245964 -0.5040681143011599
3639675 0.8383286178586773 -0.5108850753850149
3659475 0.8346800236170702 -0.517134502367958
3679275 0.8310486962517826 -0.5229440776523666
3698975 0.827419123613674 -0.5291270179477155
3718775 0.8236148340795622 -0.534599740013478
3738575 0.8202479474855284 -0.5399323545988086
3758375 0.8164738554738978 -0.544940662273293
3778075 0.8131314964683923 -0.5500104904641139
3797875 0.8098993522529464 -0.5547756675116676
3817675 0.806413278332771 -0.5598088929511132
3837475 0.8027558285908178 -0.5643144336629571
3857175 0.7995811597888574 -0.5694269524083736
3876975 0.7963426407984338 -0.5740097264719202
3896775 0.7929503534522337 -0.5790138354762935
3916575 0.7898483254020875 -0.5830829179988289
3936275 0.786650628232221 -0.5878695964737369
3956075 0.783119619834808 -0.5926829895951516
3975875 0.7799046328079203 -0.5971823532435855
3995675 0.7764449652381412 -0.6013436777903095
4015375 0.7732443962516017 -0.6062498516788575
4035175 0.7695696033838749 -0.6110749194156642
4054975 0.7661015146561285 -0.6149100047654681
4074775 0.7627066294149015 -0.6194056507447467
4094550 0.7593971248892625 -0.6241644450007069
4114250 0.7558386991218351 -0.627960705755825
4134050 0.7519629447998067 -0.6322504028786151
4153850 0.7486176371423225 -0.6367017502660677
4173650 0.7449111979099738 -0.6409333759258011
4193350 0.7413360652932937 -0.6449417918834169
4213150 0.7375008790340538 -0.6493205203014358
4232950 0.7336704436739697 -0.6533129514678774
4252750 0.7300796323079967 -0.6572542077713079
4272450 0.7260399043954231 -0.661255614225251
4292250 0.7223274235824255 -0.6655662564569131
4312050 0.7182164666441647 -0.6695885895319688
4331850 0.7143541286951753 -0.6735665119442746
4351550 0.7104188010700652 -0.6772844084861291
4371350 0.7064872530312098 -0.6815182755592878
4391150 0.7020326462757189 -0.685046108954947
4410950 0.6978958660119103 -0.6892148720392289
4430650 0.6935219712448114 -0.6927014480620806
4450450 0.6897144324694177 -0.6969192535310843
4470250 0.6850396541216924 -0.7005430846687931
4490050 0.6810475668339615 -0.7043717158186199
4509750 0.6764222787002695 -0.7082391225718595
4529550 0.6720619614521967 -0.7117442940601649
4549350 0.6674510908403944 -0.715490637378492
4569150 0.6631500156944365 -0.7188134164925409
4588850 0.6579305145375064 -0.7227085202075901
4608650 0.6534831439313908 -0.72589755732769
4628450 0.6485280311982107 -0.7297580499748706
4648250 0.6439382153147756 -0.7332650968338478
4667950 0.6382822794439141 -0.7364149807135972
4687750 0.6335882663827462 -0.7398860458307585
4707550 0.6285989343293373 -0.7439482428498257
4727350 0.6228969298795745 -0.7470357843118004
4747050 0.6175005835269579 -0.7501937435262863
4766850 0.6118238717516594 -0.7534620881145312
4786650 0.6061356593778258 -0.7565207836081925
4806450 0.6001604839437339 -0.7595879466752009
4826150 0.5945115482182539 -0.7626391901789561
4845950 0.5879089851667729 -0.7657362323328163
4865750 0.5816019065969724 -0.7683464591225756
4885550 0.5756331116653709 -0.7710935971555036
4905250 0.5688094112904739 -0.7741447008079423
4925050 0.5618765331190644 -0.7763526209283352
4944850 0.5549652329686335 -0.7790692959413343
4964650 0.5471462393355634 -0.7815550395683217
4984350 0.5400501594476596 -0.7837635865683763
5004150 0.5320186282542793 -0.7861111024313242
5023950 0.5234590617420122 -0.7879491332309089
5043750 0.5156726626950185 -0.7894306565732594
5063450 0.5066676909787595 -0.7908106538468955
5083250 0.4966090140353438 -0.7915876614093601
5103050 0.48730750634441394 -0.7917049839908392
5122850 0.4771156310103654 -0.7919033043343044
5142550 0.4664805199286044 -0.7913182728161232
5162350 0.45541283111309244 -0.7900324012954424
5182150 0.4439833353527363 -0.7877130214911159
5201950 0.43245788081165937 -0.7848470488661431
5221650 0.4197317942476347 -0.7808493736066894
5241450 0.4074051800593162 -0.7749528742109815
5261250 0.39427314621571896 -0.7677187864777238
5281050 0.38124647052727645 -0.7586542917236876
5300750 0.3686854512794318 -0.7473335129548664
5320550 0.3570913436455022 -0.7335965502024444
5340350 0.3464957495769424 -0.7165773759472069
5360150 0.3379642606063763 -0.6974046330378724
5379850 0.3327081301365934 -0.67606198688568
5399650 0.33127901185445363 -0.6524072084583542
5419450 0.33467962951203023 -0.627178291968044
5439250 0.34341662692002506 -0.6024986213233303
5458950 0.3577771869519658 -0.579344783922618
5478750 0.37694682652969885 -0.5595460269782853
5498550 0.40048493508342176 -0.5444195726214257
5518350 0.4266500335082913 -0.5359230298140899
5538050 0.4530962077199157 -0.5327708843799293
5557850 0.47856178177924297 -0.5353356020976288
5577650 0.5018784611701308 -0.5425207498763609
5597450 0.5220432419806154 -0.5532734039271915
5617150 0.538840067467168 -0.5668418969327496
5636950 0.5523513971847562 -0.5810929142027834
5656750 0.5627373191066438 -0.5965617352151523
5676550 0.5700554743835631 -0.6123477063362709
5696250 0.5755079439797017 -0.627443209641364
5716050 0.5789751695631252 -0.6417998110149906
5735850 0.58041072017601 -0.6561802135714931
5755650 0.5806768491704859 -0.6692737667153188
5775350 0.5796940351166472 -0.6809880807765197
5795150 0.5784686072365555 -0.6931889197225931
5814950 0.5761116663124627 -0.7039829690030823
5834750 0.5732292810264715 -0.7143556960306076
5854450 0.5699867107865223 -0.7240943126892528
5874250 0.5663869495376499 -0.7325646065911885
5894050 0.5623850569630925 -0.741044304986619
5913850 0.5582415042686342 -0.7489512963262396
5933550 0.553848691712778 -0.7564059291178543
5953350 0.5494843967260701 -0.763338171988093
5973150 0.5451880971700115 -0.7698212302775628
5992950 0.5404642446420221 -0.7764659832059012
6012650 0.5357836585542234 -0.7819321030877684
6032450 0.530695021250173 -0.7878031856490104
6052250 0.5261242666738721 -0.7933618838137758
6072050 0.5216927218333505 -0.7985543729446691
6091825 0.5161681904908634 -0.8037877559873384
6111525 0.5120066837532101 -0.8085516516923018
6131325 0.5072509703464906 -0.8128795428862002
6151125 0.5018969471841692 -0.8176399378182678
6170925 0.49698930854205514 -0.8217646922165365
6190625 0.49191602478654417 -0.8259108031178586
6210425 0.4872702307200337 -0.8297746677225418
6230225 0.4821264600170455 -0.8337139826496951
6250025 0.47725451469459584 -0.8382122223115583
6269725 0.472081494078498 -0.8409300331075594
6289525 0.467552920520882 -0.8450520293434469
6309325 0.46207543205241747 -0.8481142155839704
6329125 0.457084047323331 -0.8510749348937554
6348825 0.4517804241444788 -0.8539452075122725
6368625 0.4459672953518251 -0.8582090298405214
6388425 0.4409173216322534 -0.8615349908793568
6408225 0.43605949395343807 -0.8637601165845834
6427925 0.43023230583408506 -0.8659585270200234
6447725 0.42526546949992067 -0.8684135278194921
6467525 0.4204001833657973 -0.8710529345781719
6487325 0.4152545102943543 -0.8733755591400013
6507025 0.4099181334853871 -0.8755274721744839
6526825 0.40531811635441783 -0.8775644151706025
6546625 0.3998323736249237 -0.879953648530781
6566425 0.3951354118311946 -0.8819180850956558
6586125 0.3902923557621854 -0.8841267733688948
6605925 0.3850346676637059 -0.8859670766191738
6625725 0.3800529172247524 -0.8885555850360022
6645525 0.37496441374775386 -0.889968044825809
6665225 0.36990221583716576 -0.8921296684671457
6685025 0.36465340649863515 -0.8934815516772903
6704825 0.3596579244537315 -0.8951620344967001
6724625 0.35430177700257387 -0.8970268627047069
6744325 0.34897434169099095 -0.8982035901064477
6764125 0.3438535408741791 -0.8999141089762739
6783925 0.338008496754671 -0.9014542729993567
6803725 0.3327867720740035 -0.9026635277557572
6823425 0.32741465115042334 -0.9034378358359039
6843225 0.3210302870280754 -0.9044869990819276
6863025 0.3157469731009999 -0.9062072922730903
6882825 0.31017043901701713 -0.906466564583938
6902525 0.30452561249441906 -0.907145408489017
6922325 0.2984238063199505 -0.9077709685296377
6942125 0.29281632970290894 -0.9077494315441421
6961925 0.28698254623550723 -0.907917064560718
6981625 0.28076880266495186 -0.907586654411179
7001425 0.27433857765982517 -0.9073481325878935
7021225 0.26837849327296937 -0.9066546603379649
7041025 0.26262805536267114 -0.9052932326475424
7060725 0.2556657356493709 -0.9036898982920307
7080525 0.25010101703685367 -0.9021051103722775
7100325 0.24452834171985377 -0.899715533962571
7120125 0.23825082400044933 -0.8969295422784197
7139825 0.232912215321811 -0.8938276983991291
7159625 0.22767636633276303 -0.8896443052184893
7179425 0.223352557413896 -0.8850453473453498
7199225 0.2194550259759082 -0.8798204151067178
7218925 0.2165945109748218 -0.8745119609456878
7238725 0.21472445630818263 -0.8688421722596461
7258525 0.2140899028245985 -0.8629049667907531
7278325 0.21537656616350837 -0.8575323939048568
7298025 0.21750959040945284 -0.8529660358491353
7317825 0.22071422046600397 -0.8496713777783825
7337625 0.22468381104616633 -0.8474128062721205
7357425 0.22949885206245255 -0.8472708051110641
7377125 0.23319233119070645 -0.8481059916663365
7396925 0.23689961832122833 -0.8504767377447935
7416725 0.23978009771680925 -0.8542749978299624
7436525 0.24165227990834037 -0.8583666572445756
7456225 0.24245596601603658 -0.8629336333745082
7476025 0.24232242206098764 -0.8675675539920443
7495825 0.2415755381634944 -0.8721851127340124
7515625 0.24013026492093306 -0.8769635298424029
7535325 0.23839710895676938 -0.880967685731067
7555125 0.23579592662590193 -0.8857108699278444
7574925 0.23299773164263282 -0.8892301955422747
7594725 0.22970867818557414 -0.8933102609583234
7614425 0.2265288363513369 -0.8966427868663693
7634225 0.2227806726233011 -0.8998649440796975
7654025 0.21945767471573127 -0.9030137734770957
7673825 0.21560111106175084 -0.9061917746650409
7693525 0.21183349335453733 -0.9090676269030716
7713325 0.20830656526729283 -0.9115889164532041
7733125 0.2043432044985094 -0.9138285020598078
7752925 0.20040460999665355 -0.9160438362163138
7772625 0.1964116326462655 -0.9184903372686719
7792425 0.19281761523142754 -0.9206868659827174
7812225 0.18861381382015405 -0.9229283354624944
7832025 0.18466380994240902 -0.9248780497016723
7851725 0.181138376219583 -0.9274623960736798
7871525 0.17643792434291097 -0.9292951392819708
7891325 0.1725330045763774 -0.931273255769514
7911125 0.1681006081874148 -0.9335169659064699
7930825 0.16436617310426235 -0.9354054227258513
7950625 0.16000863264220597 -0.936984743819863
7970425 0.1554874790315133 -0.9391347638965413
7990225 0.150759791155976 -0.9407901901577008
8009925 0.1465139690856196 -0.9423063351770469
8029725 0.14167676906336565 -0.94411546515368
8049525 0.13764701028276038 -0.9450325495111841
8069325 0.13323648599454 -0.9471311964245653
8089100 0.12825541597150747 -0.948474324025276
8108800 0.12371645669509221 -0.9497739099862211
8128600 0.11889539424695907 -0.9512143139881584
8148400 0.1146385196800686 -0.9520316846416185
8168200 0.1098111479260938 -0.9534468291516623
8187900 0.10539554750632354 -0.9543298728782795
8207700 0.10041415272027714 -0.9559787948849854
8227500 0.096002213779258 -0.9566188786759462
8247300 0.09077798716520828 -0.957661353248687
8267000 0.08646969055722784 -0.958864580118399
8286800 0.08159823175674984 -0.959403320076019
8306600 0.07712558590569103 -0.9602976356023947
8326400 0.07198970300384162 -0.9611147476508545
8346100 0.0673102959937419 -0.9618311531457105
8365900 0.06264979525192865 -0.9620267295991193
8385700 0.05759023795278375 -0.9630463636159105
8405500 0.052802258322095535 -0.9638153984814236
8425200 0.04797635777014177 -0.9639882177771926
8445000 0.043407081188049916 -0.9640810082570931
8464800 0.038674209196407225 -0.9652804771049543
