# Hz S RI R 50
100000 0.9980171750811223 -0.02414695696470799
119700 0.9974163960753247 -0.028695666051080926
139500 0.997274678629232 -0.03344516507393825
159300 0.9971685453023511 -0.038051879697012084
179100 0.9967132381393363 -0.0426519624265671
198800 0.9964139329170084 -0.04748638420503589
218600 0.996292651997731 -0.052063706256136794
238400 0.9963997322787399 -0.05682036466849675
258200 0.995762722324581 -0.06143436311888121
277900 0.9953187630951124 -0.06591812310029803
297700 0.995021525126074 -0.07053496118479007
317500 0.9948419099077725 -0.07529903825900752
337300 0.9943110198993514 -0.07995842267857475
357000 0.9940297735088619 -0.08482464686017817
376800 0.9936645555128214 -0.08941650712414397
396600 0.9931673666739096 -0.09420523413151126
416400 0.9925000312627467 -0.09867102230383483
436100 0.9923497875811108 -0.1035750252285951
455900 0.9915970076251944 -0.10812427482457662
475700 0.9909637324715579 -0.11279630414952796
495500 0.9907575045208655 -0.11750719085376374
515200 0.9899725926019641 -0.1221553908832377
535000 0.9893454471951247 -0.12677511840519617
554800 0.9889696602901914 -0.13164753083638295
574600 0.9881546141447498 -0.1361557153455221
594300 0.987484655277416 -0.14103570517021471
614100 0.9863825007498401 -0.14560414963658902
633900 0.9862304391784633 -0.15047241536570166
653700 0.9852415912427498 -0.15515455557225874
673400 0.9846584926787827 -0.1599039700831156
693200 0.9836297478170591 -0.16430948043200075
713000 0.983250027996281 -0.169146666708894
732800 0.9820282069358238 -0.17383152362834972
752500 0.9814123498230335 -0.17853630277294574
772300 0.980670934787195 -0.18317742486390923
792100 0.9796706215199104 -0.18813161722681154
811900 0.9786806205792062 -0.19271183424837557
831600 0.9777489500290018 -0.1969607637133636
851400 0.9769272147446347 -0.2019429377823555
871200 0.9754132239097236 -0.20671509036865154
891000 0.9744396768090323 -0.21157182043947853
910700 0.9734712686633342 -0.21627770510466351
930500 0.9727279177464193 -0.2210231342454228
950300 0.9715590283895227 -0.22565973109901113
970100 0.9702252625265283 -0.23019117768777045
989800 0.9691474090070631 -0.23495370133936283
1009600 0.9679809537154451 -0.2399853908912472
1029400 0.9667234302448847 -0.24474122342008522
1049200 0.9654571532124532 -0.24909778565184715
1068900 0.9643748832523227 -0.25407634992137096
1088700 0.962973451266853 -0.2589757467441405
1108500 0.9617272318723937 -0.26359361396638836
1128300 0.9603582402683987 -0.2684553506157874
1148000 0.9589112750096506 -0.27311025906795344
1167800 0.9576602650653209 -0.27794350387260364
1187600 0.9560321952196771 -0.2826148220788702
1207400 0.9545443411656532 -0.2874266674678626
1227100 0.9531596931685364 -0.2921675611231298
1246900 0.9519271707933527 -0.29709528474211655
1266700 0.9501599783667277 -0.301687662072147
1286500 0.9485180913190577 -0.30661073361740165
1306200 0.9470964848308014 -0.31138578575440906
1326000 0.9456025554834778 -0.3160213044436087
1345800 0.9435634167269993 -0.3213023602924264
1365600 0.9418963301616161 -0.3258967654310965
1385300 0.9402080891474823 -0.33083848531523696
1405100 0.9386758000852518 -0.33544786805793075
1424900 0.9366732900005826 -0.3402173571724364
1444700 0.9349181102284656 -0.3452218021349778
1464400 0.9330181702386764 -0.3500228634374396
1484200 0.9312260740685063 -0.35501329513099966
1504000 0.9293660451621399 -0.359683390958636
1523800 0.9273983713102844 -0.364417399483444
1543500 0.9254128319096556 -0.36947213723142475
1563300 0.9235980685462112 -0.37463186277563837
1583100 0.9215592137370177 -0.3794569922994365
1602900 0.9190556437663344 -0.3842107521477637
1622600 0.916855536836173 -0.3892495893488539
1642400 0.9149169212804452 -0.3939388776852543
1662200 0.9130892540451574 -0.39900935461870773
1682000 0.9105270405981407 -0.40376171157411384
1701700 0.908590058806776 -0.4092038175163587
1721500 0.9059886877887349 -0.41371816679478557
1741300 0.9039580822435407 -0.4185042053261891
1761100 0.9015011761700686 -0.4238663939520156
1780800 0.8991059324892943 -0.4286607741182739
1800600 0.8969407410099787 -0.43397211190580676
1820400 0.8939355702141556 -0.43879973503319164
1840200 0.8913835031531465 -0.4436821838671953
1859900 0.8888328745587981 -0.4493077406558115
1879700 0.8863030071387329 -0.45424512824512386
1899500 0.8836615088548371 -0.4592733932476967
1919300 0.8808072488749442 -0.4642703688923874
1939000 0.8781332450664245 -0.4693588157306206
1958800 0.8753061805060399 -0.47457426710282474
1978600 0.8726743236232846 -0.47977646118955786
1998400 0.8696105534309874 -0.48499432256174646
2018100 0.8664936576359815 -0.4899865268007288
2037900 0.8634494122978329 -0.49486151441054516
2057700 0.8602007593668243 -0.500376125197322
2077500 0.8572135447863776 -0.5056248138666329
2097275 0.8542339722463691 -0.5109286108182398
2116975 0.850605114818626 -0.5161620783485054
2136775 0.8471857954085203 -0.5213822099308011
2156575 0.8440374419611717 -0.526873389635756
2176375 0.8404262317528907 -0.5321269492085451
2196075 0.8370563834363205 -0.5377753719213829
2215875 0.8334992749983837 -0.5428988838913282
2235675 0.8296267925312287 -0.5484417378265455
2255475 0.8258545732019228 -0.5538383463479565
2275175 0.8218609263199179 -0.5592231209801979
2294975 0.8180709491447592 -0.5646193433751631
2314775 0.813914784776297 -0.5703837376547171
2334575 0.8102485940466934 -0.5758738884177692
2354275 0.8058726598574186 -0.5817391578097385
2374075 0.8012986317895245 -0.5872891670891169
2393875 0.7970975422061306 -0.5931020874387076
2413675 0.7926454288681627 -0.598588864321466
2433375 0.7882671767036469 -0.6047126847023926
2453175 0.783295314153422 -0.6101745913585233
2472975 0.7786688933939371 -0.6162023007097746
2492775 0.7737938493176248 -0.6220330656048456
2512475 0.7689077383584559 -0.6281454069048978
2532275 0.7634095605004751 -0.6336211994009978
2552075 0.7583392070839321 -0.6401532074178522
2571875 0.7525756475195798 -0.6461085997403337
2591575 0.7471085652155058 -0.652472088937051
2611375 0.7413104666002306 -0.6583971675401937
2631175 0.7353705848288573 -0.664556321713892
2650975 0.7289990361981059 -0.6708479212920114
2670675 0.7227706945100058 -0.6775641290256783
2690475 0.7161778929460423 -0.6840232508721077
2710275 0.709374717124781 -0.6903063663294688
2730075 0.7018959648950363 -0.6972892465646977
2749775 0.6950659649829799 -0.70336311554832
2769575 0.6875983072410308 -0.7104608441240873
2789375 0.6795680543587307 -0.7170647078351073
2809175 0.6717318449136257 -0.723786641494245
2828875 0.6632312106454806 -0.7310793203951327
2848675 0.6542207391866021 -0.7380126412744038
2868475 0.6449122936386961 -0.745012293750848
2888275 0.6354012220904788 -0.7522893060960112
2907975 0.6248489417764722 -0.7592440148367624
2927775 0.6141041032301757 -0.7667541971822754
2947575 0.6022101631834965 -0.77390948056967
2967375 0.5905081934248986 -0.7815265879603814
2987075 0.5773251498160263 -0.788455103297717
3006875 0.5632671815949832 -0.7955479189339083
3026675 0.5486806947649652 -0.8019299605843194
3046475 0.5323203389471759 -0.8082289212486936
3066175 0.5149877023175782 -0.8135462869707478
3085975 0.4961522825484581 -0.8180580264386378
3105775 0.47599631727142244 -0.8207894891057441
3125575 0.4547993133173822 -0.8208740298305588
3145275 0.4330520506414046 -0.817644029791695
3165075 0.41263932742202114 -0.8105324584968395
3184875 0.395552354734108 -0.7993254159929669
3204675 0.38531616337969343 -0.7856400588651178
3224375 0.3825423074503345 -0.7752685050832337
3244175 0.38424267256302436 -0.771309039316085
3263975 0.3858430297809656 -0.776836525572859
3283775 0.383081409537235 -0.787764085728715
3303475 0.37449798134317513 -0.8025509180701896
3323275 0.3601956224868766 -0.8181763001821388
3343075 0.34056892170412556 -0.834082852676278
3362875 0.31624851388057407 -0.8475031270413518
3382575 0.2889117133670264 -0.8593774495070886
3402375 0.257754363258496 -0.8700505237907603
3422175 0.2235582236774967 -0.8784165697803403
3441975 0.1858909097649679 -0.8844424125478528
3461675 0.14457830922725326 -0.8877543099349019
3481475 0.09950257071461413 -0.8878425845162158
3501275 0.05030277898027098 -0.8843091603711754
3521075 -0.003123388520092471 -0.8756437330869073
3540775 -0.06046152105344183 -0.8613512285100982
3560575 -0.12170198838172747 -0.8396177392553937
3580375 -0.18665741991322107 -0.8091336213760779
3600175 -0.2537482994946873 -0.7668348290836203
3619875 -0.3216354831372668 -0.7117787963774143
3639675 -0.3875620749263525 -0.6411957082172881
3659475 -0.4470522177014356 -0.5539678317857176
3679275 -0.4952284532118685 -0.4495087011667692
3698975 -0.5260503457718486 -0.33044415225100254
3718775 -0.5345459112969004 -0.20031515978448497
3738575 -0.5167902940320692 -0.06565918028845452
3758375 -0.4725975845973801 0.06530027688452263
3778075 -0.40397058626102145 0.1858105458591639
3797875 -0.3141236844387857 0.2907922644675154
3817675 -0.20807686385309965 0.3761454277774497
3837475 -0.09208978829857377 0.4391321882750872
3857175 0.029157934134258216 0.478457237326424
3876975 0.14901293737278404 0.4950539862148494
3896775 0.26323660965410417 0.4913937002728505
3916575 0.36762025425558326 0.47110376805139426
3936275 0.4593609465154576 0.43791671396575155
3956075 0.5396449544134918 0.39728755739264726
3975875 0.6072881149580711 0.3505223720678527
3995675 0.6644656161151518 0.3010252097823915
4015375 0.7107939389654576 0.250897622648148
4035175 0.7491787231286029 0.2010803106108204
4054975 0.7800117230017459 0.15235414125727262
4074775 0.8044929455522412 0.1057846146139024
4094550 0.8243535996967559 0.0611377046000811
4114250 0.8398441464663478 0.019352277650990235
4134050 0.8520231554293605 -0.021013892250172972
4153850 0.8607099810674 -0.0590036693681669
4173650 0.8670559962340281 -0.09516608184165974
4193350 0.8709251609304446 -0.12886201522362037
4213150 0.8730316186772091 -0.16124438710170733
4232950 0.8733422288926004 -0.19171294841092182
4252750 0.8726480121992611 -0.22006261653987905
4272450 0.8705218513091655 -0.24680412862733953
4292250 0.8674864111738889 -0.2723896904431262
4312050 0.8633555774234275 -0.2962286347039565
4331850 0.858945889732091 -0.3189186639546225
4351550 0.8541820138482599 -0.34004170195432903
4371350 0.8484107537624036 -0.3603952134752117
4391150 0.8424896185123812 -0.37939535451505774
4410950 0.8363825990548125 -0.3978386669218202
4430650 0.8298461104831055 -0.41489719624428995
4450450 0.8232768694039178 -0.43146215784797876
4470250 0.8161278104731489 -0.4472501536190408
4490050 0.8092516769353411 -0.4626019548621804
4509750 0.8018131106294074 -0.4769261828067804
4529550 0.794348762288749 -0.4908393985991526
4549350 0.7866064466096331 -0.5038512016130104
4569150 0.7787777804800775 -0.5166078745148116
4588850 0.7707973828618594 -0.5291539455383313
4608650 0.7629231373143958 -0.5405466717431447
4628450 0.7545482619802227 -0.5520679020937987
4648250 0.7464394308075072 -0.5630686163838324
4667950 0.7377995870223241 -0.5733611596187553
4687750 0.7294471364837098 -0.5836118343603331
4707550 0.7209367253821618 -0.5939976307045782
4727350 0.7119870486357437 -0.6032555968753431
4747050 0.7025722629751883 -0.6124338707162467
4766850 0.6936761957284011 -0.6212475311618425
4786650 0.6842664002860509 -0.6299975441164516
4806450 0.6746795474243612 -0.6380866201453347
4826150 0.6653289701496538 -0.6461165905508574
4845950 0.6551822123931136 -0.6537580097030192
4865750 0.645055116845166 -0.6610957816198673
4885550 0.6352810349524163 -0.6680616685971601
4905250 0.6247783648725893 -0.6753424812602741
4925050 0.6139604172198359 -0.681583629463207
4944850 0.6030068361576179 -0.6881571816938225
4964650 0.5914854215379216 -0.6945121766547901
4984350 0.5802084834861481 -0.7001693313395039
5004150 0.5682778003065374 -0.705806844407193
5023950 0.5555178412103957 -0.7110665768199559
5043750 0.5430584260906669 -0.7159504769813326
5063450 0.529536342844277 -0.7204212619493241
5083250 0.5154436034690489 -0.7241238517350553
5103050 0.5011572512446062 -0.7273106434727603
5122850 0.4861273641246045 -0.7302421965518775
5142550 0.47066173984586446 -0.7323829791843612
5162350 0.4543870553571116 -0.7334996190400133
5182150 0.4375746892782693 -0.7338479003006174
5201950 0.42062473552922536 -0.7337006911039315
5221650 0.40225575517285617 -0.7324014737488869
5241450 0.3835144268241475 -0.7295294190461667
5261250 0.3636673540409183 -0.725052970997795
5281050 0.34322097808327595 -0.7187267468797537
5300750 0.3223500778302138 -0.7104441107113453
5320550 0.3009547067649536 -0.6999523956808181
5340350 0.27962160321876506 -0.6857870847703927
5360150 0.2582908903012967 -0.6691545754115243
5379850 0.237747077242043 -0.6492670887640788
5399650 0.21868950011140972 -0.6254838455552386
5419450 0.2011504510313051 -0.5971647653724478
5439250 0.18715250057796523 -0.5655051571521261
5458950 0.1771816570145495 -0.5295944771844172
5478750 0.17254554873033098 -0.4900839723805252
5498550 0.1741295633056902 -0.44848804615630505
5518350 0.18331222768656902 -0.4059659235141301
5538050 0.20062967197759699 -0.3637736170412201
5557850 0.2244339300919202 -0.323843171223192
5577650 0.2575779633705189 -0.28917119366888533
5597450 0.297035608161237 -0.26169746819690004
5617150 0.3401253214060261 -0.2427080942718173
5636950 0.38557366121849973 -0.23162567819682867
5656750 0.4305461539086489 -0.2292394801937077
5676550 0.47312574653453693 -0.23465749764191995
5696250 0.5122949724985861 -0.24593101787458396
5716050 0.5476515760226471 -0.26208676131681596
5735850 0.5780043459823155 -0.2824649678537283
5755650 0.6034461270217454 -0.30480599187633617
5775350 0.6244265898695102 -0.32830723705323034
5795150 0.6417146973546768 -0.35275178031512183
5814950 0.6552841429991443 -0.37715074644631125
5834750 0.6656157192785174 -0.4011588822424243
5854450 0.6730223773549245 -0.42420711188625243
5874250 0.6782567020018904 -0.4462697396950344
5894050 0.6817046395567515 -0.4676952378150775
5913850 0.683294414702035 -0.4877927052256103
5933550 0.6837099248993938 -0.5068819566888363
5953350 0.6831088667625077 -0.5250020622780149
5973150 0.6815448767135873 -0.5419641618160282
5992950 0.6785340911788953 -0.5585635394292638
6012650 0.6755015593624676 -0.5731419780713225
6032450 0.6714428912588843 -0.5883411796451796
6052250 0.6674958686031057 -0.6020218161651812
6072050 0.6629643209396517 -0.6148862030164487
6091825 0.6578015458684965 -0.6269159669099035
6111525 0.65310571682067 -0.638867807124185
6131325 0.6476837179883059 -0.6498729528029333
6151125 0.6417866453570251 -0.6605735576933325
6170925 0.6358387917850415 -0.6706966056473339
6190625 0.6299396470826277 -0.6802425657875573
6210425 0.6240655424286082 -0.6893300329200284
6230225 0.6176451720460103 -0.6982278483822405
6250025 0.6116215313545852 -0.7071945818425075
6269725 0.6052171133038243 -0.7146133387630207
6289525 0.5992025430915254 -0.7227789609958979
6309325 0.5924020685432257 -0.730071607057763
6329125 0.5857199354329305 -0.7371171754680116
6348825 0.578913625794039 -0.7435350111849887
6368625 0.5716373469695517 -0.7513669116566207
6388425 0.5652981184327294 -0.7579401903199608
6408225 0.5585812590980398 -0.7631888289371838
6427925 0.55117085908126 -0.7685218706102319
6447725 0.544395213798137 -0.7739042064975896
6467525 0.5379801312189029 -0.7791462848711003
6487325 0.5314130751221702 -0.7836629046915461
6507025 0.5242862209977687 -0.7886615862474763
6526825 0.5181556809903948 -0.7928646589075389
6546625 0.5111246313623697 -0.7976050041412802
6566425 0.5050316831548034 -0.8013831108940175
6586125 0.4985623912376687 -0.8054259577397834
6605925 0.49164828844131436 -0.8094710622134821
6625725 0.4850893431001012 -0.8137060851478589
6645525 0.4786373631569032 -0.8169008390516547
6665225 0.4721705179093544 -0.8206920339750798
6685025 0.46526755484794047 -0.8236770371063412
6704825 0.4588866225407147 -0.8267770960470373
6724625 0.45204214953839467 -0.8302018715468281
6744325 0.4451713395846107 -0.8328735929473285
6764125 0.438429290316599 -0.8359049440070072
6783925 0.4311286402968402 -0.8385549941151801
6803725 0.4243277190101919 -0.8408118488132551
6823425 0.4177167380034516 -0.8427191976457737
6843225 0.4096214805472191 -0.8448394406027476
6863025 0.4026384873778019 -0.8474341282845609
6882825 0.3955469351020781 -0.8486264347564035
6902525 0.38836030349331374 -0.850148963125819
6922325 0.380703169442004 -0.8514541267361774
6942125 0.3732690418723779 -0.8521461327644587
6961925 0.3657245194564822 -0.8529064840700035
6981625 0.35781819978755597 -0.8527308161292838
7001425 0.3496176515245167 -0.8526188751867013
7021225 0.34238256097657016 -0.8518976679315138
7041025 0.33438390174301047 -0.8504299846453071
7060725 0.32622203621217866 -0.8487076157666597
7080525 0.3189752740410815 -0.8464295716833373
7100325 0.311926342687274 -0.8433222686444124
7120125 0.3045223266905746 -0.8398371490553357
7139825 0.29796686252983495 -0.8357340062327561
7159625 0.2917249182540604 -0.8304858177827891
7179425 0.28660694077958204 -0.8243382663476946
7199225 0.28233870061700683 -0.8177471299907786
7218925 0.27920561455215537 -0.8106614239170685
7238725 0.27758325770978864 -0.8036674434270742
7258525 0.2776618738360347 -0.7962573425505959
7278325 0.27962162473421276 -0.7898184091497046
7298025 0.2824939102741345 -0.7836440714405859
7317825 0.2870446543294488 -0.779479351045118
7337625 0.2922301222622818 -0.7765523323414788
7357425 0.2984144730689608 -0.7754184089643049
7377125 0.30379768865103524 -0.7758145657487837
7396925 0.30926337479624766 -0.7778765978776156
7416725 0.3139727344621694 -0.7816475891636472
7436525 0.31777462976943516 -0.7853521171193591
7456225 0.32050900011446015 -0.7913127983113722
7476025 0.3218773502935673 -0.7967473568567666
7495825 0.32296160769931603 -0.8026896067555455
7515625 0.32288889048651037 -0.808395637237817
7535325 0.32239076829515634 -0.8136896981849541
7555125 0.32098204571753636 -0.8197529352768521
7574925 0.31911429418173504 -0.8248721202587338
7594725 0.31703482122101145 -0.8304187748540782
7614425 0.3146461051304469 -0.8354795111522132
7634225 0.31138851075158924 -0.8401512675399481
7654025 0.30857581403923956 -0.8449640800010906
7673825 0.3053306029304534 -0.8496956133525603
7693525 0.3019986145609336 -0.8540433646266424
7713325 0.2987819914628379 -0.857941273158636
7733125 0.2948966782623748 -0.8618601320363499
7752925 0.2914221402488647 -0.8653275152313513
7772625 0.2874498917775381 -0.8693611956787837
7792425 0.2839935750953183 -0.8731178810889533
7812225 0.2798457390938824 -0.8768388436971928
7832025 0.2756296694878738 -0.8802426890822691
7851725 0.27231938011306017 -0.8840118028611758
7871525 0.2676008167428882 -0.8872353477140162
7891325 0.26357968593533104 -0.8907482654166328
7911125 0.2588032186970438 -0.8945062149212668
7930825 0.2547257136569859 -0.8974021005684794
7950625 0.25019740610256497 -0.9003167265688319
7970425 0.24566714902406414 -0.9037989524190417
7990225 0.24051596619049662 -0.906686017269338
8009925 0.23600560018027553 -0.9095555120111224
8029725 0.23086853844737198 -0.9127694668020022
8049525 0.22620702237270668 -0.9148861771971809
8069325 0.22139272988612196 -0.9180735417265238
8089100 0.2155325193441855 -0.9207687232248642
8108800 0.21072040440022008 -0.923342356554521
8128600 0.20536494460816992 -0.9258002131226946
8148400 0.20017699203683503 -0.9277306215626944
8168200 0.19506836602000976 -0.9302497477115231
8187900 0.18988828324403664 -0.9321125326022622
8207700 0.1845016398295815 -0.9346730377448762
8227500 0.17921248515261626 -0.9364917142515633
8247300 0.1733643597123382 -0.9382790039578499
8267000 0.16848035339198386 -0.9402441187335874
8286800 0.16277485958762328 -0.9420293721978711
8306600 0.1576086295794393 -0.943413373230807
8326400 0.1519969957089351 -0.9451257772077216
8346100 0.14643495196868028 -0.946536637151858
8365900 0.1412204751996778 -0.9476211380816614
8385700 0.1355887803892669 -0.949239327714846
8405500 0.13004024281839324 -0.9505503392118655
8425200 0.1244821722468796 -0.951639492820676
8445000 0.1193659416485289 -0.9523419044059629
8464800 0.11368155757996684 -0.954150412551561
