# Hz S RI R 50
100000 0.9976096840317431 -0.02418606728482156
119700 0.9981621799654286 -0.028834860221367428
139500 0.9978245556370209 -0.03371319705295022
159300 0.99778087848869 -0.03816547129204457
179100 0.9971926844150228 -0.04282901367262201
198800 0.9973017959766799 -0.04756572935799757
218600 0.9967119531851433 -0.05208462575206339
238400 0.9969375334851109 -0.05702407996647122
258200 0.9962984816875249 -0.06172674911458808
277900 0.9961319818696922 -0.06616489064313401
297700 0.9956843949723657 -0.07112338862907844
317500 0.995284969725612 -0.07571627732235908
337300 0.9947231390086578 -0.08062336104917175
357000 0.9946388505967938 -0.08553250238807472
376800 0.9942270231254923 -0.09012752751428887
396600 0.9935656681109937 -0.09492474760241151
416400 0.9930120809577753 -0.09977391641591606
436100 0.9927792676633073 -0.10460917204848141
455900 0.9920896456963587 -0.1092992935114351
475700 0.9914572605223178 -0.11422863596691891
495500 0.9912020764980786 -0.11911949939383534
515200 0.9902384366633307 -0.12393828227985078
535000 0.9895932872925293 -0.12873761293689884
554800 0.989395520589187 -0.13392444410520216
574600 0.9885513829444534 -0.13889218922711027
594300 0.9877251291678432 -0.1438715804850878
614100 0.9866922897997523 -0.14867989622369895
633900 0.9863374810013013 -0.15392706214911614
653700 0.9853186879489824 -0.15902113794590883
673400 0.98467792401911 -0.16409482584392165
693200 0.9834439564786267 -0.16896649498078334
713000 0.9829013912611952 -0.1742606033381401
732800 0.9815956053251909 -0.17930037779200686
752500 0.9808358801163836 -0.1845196389162066
772300 0.9798748542077755 -0.189877861403052
792100 0.9790106906492055 -0.195250225574869
811900 0.9777100455927121 -0.20059153414823427
831600 0.9765753447859603 -0.20585323520178012
851400 0.9755147946478131 -0.21160080865397207
871200 0.9737165300407404 -0.2169219467948721
891000 0.9724122728281952 -0.22265297196259234
910700 0.9712934990347803 -0.22846862612056015
930500 0.971220695781982 -0.23403592222044317
950300 0.9685129387058001 -0.23985866569580006
970100 0.967076228731693 -0.24565993959290505
989800 0.9653877728161718 -0.251499093695527
1009600 0.9636540833750306 -0.257758359977107
1029400 0.9618484603293296 -0.26401214555048885
1049200 0.9601805112728037 -0.26995358677332454
1068900 0.9584844727947469 -0.27656000156204874
1088700 0.9561894522417566 -0.28316536791288743
1108500 0.9542916186404334 -0.28962103186168886
1128300 0.9521012024755671 -0.2965780181399576
1148000 0.9495856489384369 -0.3038207192658929
1167800 0.9474169449016743 -0.3109002786666938
1187600 0.9446611118867213 -0.318096583596203
1207400 0.942117426227888 -0.3258653747433557
1227100 0.9389990215014242 -0.3335185320428767
1246900 0.9362348756194157 -0.34172584449239624
1266700 0.9326133581608401 -0.3499774210392164
1286500 0.9294004080181862 -0.3590347932526325
1306200 0.9255540842276186 -0.3678285141103763
1326000 0.921692094777939 -0.37727577928784667
1345800 0.9169735232574184 -0.387732425376022
1365600 0.9121157757194636 -0.39795195791025006
1385300 0.9071294108954919 -0.4091096746316498
1405100 0.9012329277399673 -0.4206242184749384
1424900 0.8944450944209817 -0.43325649050724224
1444700 0.8871328495137951 -0.4468069660170568
1464400 0.8787649617303838 -0.46100103622605704
1484200 0.8691734368630087 -0.4763791373617852
1504000 0.8580093414353177 -0.4929625275356169
1523800 0.8449308751387227 -0.5103913120562859
1543500 0.8299579342895662 -0.5294001411422636
1563300 0.8128617873928786 -0.5497549309824937
1583100 0.7936021445638771 -0.5728959715370866
1602900 0.769384855138033 -0.5991128301463385
1622600 0.7395509318715043 -0.6293987693344901
1642400 0.7011897622736659 -0.6645307879292114
1662200 0.6501847026638351 -0.7042870765948527
1682000 0.5797707559990386 -0.7480408622215711
1701700 0.48070032804129087 -0.794533710623893
1721500 0.3361094303457886 -0.8333729407420145
1741300 0.12239628499772605 -0.8388980930977371
1761100 -0.17682471915616493 -0.7387183024631988
1780800 -0.4832498993992842 -0.40312339208993286
1800600 -0.5113910272461687 0.17928578227880018
1820400 -0.12728064771117698 0.6100624866108468
1840200 0.3129102228622046 0.6819691127114874
1859900 0.6008813397285913 0.5822317724535917
1879700 0.7643428218102797 0.452083335370673
1899500 0.8553647476791753 0.33702731788692963
1919300 0.9069186717073656 0.24301385274860787
1939000 0.9369439160855942 0.16717189354801829
1958800 0.9549946724708664 0.10547248673358417
1978600 0.9658235392224661 0.054514730244762125
1998400 0.9717942578670828 0.011944599046048825
2018100 0.9750467530409146 -0.02414122688257542
2037900 0.9765783720926428 -0.05505159528092123
2057700 0.9770572111755236 -0.08236916320322749
2077500 0.9764539337409385 -0.10619687251738041
2097275 0.9755362578888838 -0.1272939738602435
2116975 0.9738369510172562 -0.14666671634724898
2136775 0.9718634480672333 -0.16407444475193483
2156575 0.9700424152727055 -0.17976148644110665
2176375 0.9681377424221311 -0.1943364933697787
2196075 0.9661334006552061 -0.20788375556434194
2215875 0.963841986906204 -0.22026532108933222
2235675 0.961476586199231 -0.2322691439009802
2255475 0.9592626900716963 -0.24328888317932576
2275175 0.9569983069823537 -0.25354024399828123
2294975 0.9544005486313342 -0.2634974879861708
2314775 0.9520501385087508 -0.2730904445979618
2334575 0.9498715799162603 -0.2820230917299283
2354275 0.9477176542205961 -0.2907655778856864
2374075 0.944990567259521 -0.29923202856356956
2393875 0.9428114737625504 -0.30678627029971745
2413675 0.9403671040678732 -0.31473073765607534
2433375 0.9380295670231217 -0.32215359973130375
2453175 0.9356763640702692 -0.3291924092921183
2472975 0.933175991351704 -0.33620727563902136
2492775 0.9308557846129379 -0.3431981420261114
2512475 0.9285928715489762 -0.349597508499538
2532275 0.9259854657920744 -0.3558994670659771
2552075 0.9236419947406006 -0.3623092482583823
2571875 0.9209377780455162 -0.36844868671959263
2591575 0.9188159098101879 -0.37443895198807053
2611375 0.9163238974435132 -0.38031771406184495
2631175 0.9140019469639782 -0.38585542086521385
2650975 0.9114872835312052 -0.3915769703209619
2670675 0.9090207425746214 -0.39739252234315786
2690475 0.9062975568651185 -0.4028773273362712
2710275 0.9040452619804475 -0.4084509361195975
2730075 0.901259882836604 -0.4133117155038903
2749775 0.8987755751015303 -0.41857974990686314
2769575 0.8961819018754358 -0.4240774640566519
2789375 0.8935299665768249 -0.4289661398923908
2809175 0.8909992649940686 -0.4339457411033083
2828875 0.8886292135592522 -0.4392348846039755
2848675 0.8857723221904847 -0.4443644976844481
2868475 0.8830580821855819 -0.4492325320415709
2888275 0.8804032413966958 -0.4539602900894662
2907975 0.8772412922836326 -0.4587220586434326
2927775 0.8746323696489463 -0.46333897181947836
2947575 0.8715152728051511 -0.4684589403176266
2967375 0.8686873972494903 -0.473075528293809
2987075 0.8655717748851248 -0.47767249364917536
3006875 0.8622330085463614 -0.4824043080780677
3026675 0.8588121105072983 -0.4866858982499967
3046475 0.8551342401190668 -0.49124491215494526
3066175 0.8512361632070912 -0.495573611237376
3085975 0.8472276514580492 -0.4999477732896427
3105775 0.8428461203277476 -0.5038178533477198
3125575 0.8384855427942159 -0.5075746030722454
3145275 0.832892619850826 -0.5112071045159886
3165075 0.8279290324316682 -0.5140915338416955
3184875 0.8218025079447838 -0.5160247713879362
3204675 0.8159489075265262 -0.5162910379293263
3224375 0.8106953109122808 -0.5150857317202742
3244175 0.8067452600564488 -0.5118460064260586
3263975 0.8058413231928963 -0.5086016939010077
3283775 0.8077986612430814 -0.5053514527062855
3303475 0.812127761820245 -0.5045159675726157
3323275 0.8166778343058297 -0.5068294998337557
3343075 0.8204305123460394 -0.5113255141341086
3362875 0.8224762052289133 -0.517344682576654
3382575 0.823127239326637 -0.5235213178156479
3402375 0.8231210219593088 -0.5300295957606741
3422175 0.8222134252057416 -0.5361519178435248
3441975 0.8206461753166903 -0.5421345720720396
3461675 0.8185391267734902 -0.5473043921237092
3481475 0.8161745778063356 -0.5527541806176898
3501275 0.8136420712106358 -0.5578403638698625
3521075 0.8112087736383625 -0.5628180360312066
3540775 0.808361750604236 -0.5676364948811029
3560575 0.8058640549975875 -0.5720955985427937
3580375 0.802947773635593 -0.576576923044321
3600175 0.8000491817589278 -0.5811510218865971
3619875 0.7967522167397073 -0.5847908924481253
3639675 0.7941967301121028 -0.5890063682800057
3659475 0.7909333286547933 -0.5930731086226101
3679275 0.7881394973704797 -0.5970457333947288
3698975 0.7851180983311119 -0.600847935885913
3718775 0.7819577262729779 -0.6046447522087198
3738575 0.7789549038216937 -0.6083036557097447
3758375 0.7758639605322858 -0.6115723334937873
3778075 0.7728475420608368 -0.6151486496574619
3797875 0.770237335286517 -0.618537912410739
3817675 0.7671851649846441 -0.6220725075383524
3837475 0.7641712973425092 -0.6255742544684366
3857175 0.7611936253093221 -0.6290708604729591
3876975 0.7584808824731513 -0.6324099173900045
3896775 0.7553147744096471 -0.6360880735737046
3916575 0.752566292243953 -0.6393498646731541
3936275 0.7498172251784634 -0.6426787223336072
3956075 0.7464546641899704 -0.6461352132356482
3975875 0.7435310764954761 -0.6494951009360042
3995675 0.7404245789384545 -0.6528256103196862
4015375 0.7373243384490328 -0.6565234890680228
4035175 0.7343153864818825 -0.6598599358289657
4054975 0.7312038456219453 -0.6632036010884624
4074775 0.7282015420934169 -0.6665034644579219
4094550 0.7251663913835075 -0.6700017917452993
4114250 0.7221352686202082 -0.6730304051056808
4134050 0.7183209582186063 -0.6764014345643352
4153850 0.715453148266529 -0.6796963219213575
4173650 0.7120505673507784 -0.6831548083837597
4193350 0.70880760272385 -0.686200446253667
4213150 0.705308620304778 -0.6897582292315512
4232950 0.7020014125175891 -0.6928850904580802
4252750 0.698712642991347 -0.6961440618079252
4272450 0.6952763858856235 -0.6992211078181945
4292250 0.691946676064695 -0.7028095326743398
4312050 0.6881562770172707 -0.7059747062469913
4331850 0.6843470564485282 -0.7090576529976453
4351550 0.6811016723549107 -0.7124855958001273
4371350 0.677399517895871 -0.7157050550265739
4391150 0.6736623083419705 -0.7183276151888711
4410950 0.6698046421504283 -0.7219377562788369
4430650 0.666272138622343 -0.7248401552395612
4450450 0.6622293800987058 -0.7281900222080242
4470250 0.6583320877477246 -0.7312512375454212
4490050 0.654571979802261 -0.7344993556655386
4509750 0.6502813869349994 -0.7375779755983616
4529550 0.646448256262997 -0.7404921858468033
4549350 0.6423133595889925 -0.743449569999017
4569150 0.6385138844919557 -0.7463522499074488
4588850 0.6335691884003911 -0.7494711204136113
4608650 0.629831410043537 -0.7521970631755883
4628450 0.6255122532289892 -0.7555837812378723
4648250 0.6210850855668252 -0.758502778093062
4667950 0.6161068586099792 -0.7611138888415877
4687750 0.6118607481093367 -0.7642693516685741
4707550 0.6073189328588037 -0.7675824707732838
4727350 0.6021876115219575 -0.7701179619644196
4747050 0.5971746195931513 -0.7725763437323201
4766850 0.5924548294964072 -0.7755966352907273
4786650 0.5871164551071125 -0.7779856826369571
4806450 0.5821106170882288 -0.7805645532538537
4826150 0.5766388261925133 -0.7831328495056378
4845950 0.5710432202344667 -0.7856947758327798
4865750 0.565293743201609 -0.7881204068871352
4885550 0.5601858225597193 -0.7905137421003449
4905250 0.5534957040721392 -0.7932200361967197
4925050 0.5474713039267811 -0.7948791899921728
4944850 0.5411285426036906 -0.7969386877437294
4964650 0.5344517944758131 -0.7994906779933652
4984350 0.5275309245885322 -0.8011087135846858
5004150 0.5209605308539209 -0.8030010756179032
5023950 0.5130006580544785 -0.8044074228259055
5043750 0.5061273489924917 -0.8057523819840423
5063450 0.4978948289497289 -0.8067332636875584
5083250 0.4892942538906772 -0.8071456491735052
5103050 0.48062885084668616 -0.8072194559346718
5122850 0.47169082121795425 -0.8071421743722357
5142550 0.46224347932269916 -0.8062688731480762
5162350 0.4523308570740618 -0.8047437049532987
5182150 0.44255863474528795 -0.8024306301533957
5201950 0.43214569870293995 -0.7991816473177172
5221650 0.42131595734563365 -0.7951599115818068
5241450 0.41045294223566914 -0.7894040987149086
5261250 0.3992978082253483 -0.7820035516589416
5281050 0.3885713814446488 -0.7730324618179564
5300750 0.3782850327967856 -0.7619816843322212
5320550 0.3696027701364445 -0.748858386128761
5340350 0.3622849822201225 -0.7328216824839072
5360150 0.3573166492372969 -0.7146492867225864
5379850 0.35610304488007954 -0.6956084707562867
5399650 0.35887345135456733 -0.6752841745035728
5419450 0.36638743749367464 -0.6545948517572361
5439250 0.3786158507517821 -0.6362674742364831
5458950 0.39495031573918576 -0.6207883515841846
5478750 0.41452249279042 -0.6095878754123656
5498550 0.4359435174075666 -0.603347433904169
5518350 0.4574937113779939 -0.6027360659525892
5538050 0.47780403022278495 -0.6062183450816165
5557850 0.4960924005866673 -0.6138126974197444
5577650 0.5112705746571161 -0.6236203318436339
5597450 0.523569825477939 -0.6357404689621117
5617150 0.5330341465138011 -0.6487697475439852
5636950 0.540509890477237 -0.6617731377672679
5656750 0.5450997974945576 -0.6749233634031464
5676550 0.5477805071403882 -0.6878936863784564
5696250 0.5494261671260923 -0.6999701175289538
5716050 0.549722728619721 -0.7111639781072518
5735850 0.5486874280410226 -0.722215877878767
5755650 0.5469384802132398 -0.7323708861354598
5775350 0.5443973421094445 -0.7414335016616872
5795150 0.541883407418916 -0.7506570454847362
5814950 0.5384118320817994 -0.758942165677789
5834750 0.5350018321667149 -0.7668815936696244
5854450 0.5311916003976929 -0.7740437076923485
5874250 0.5273839448161084 -0.7806790780023202
5894050 0.5231937197598422 -0.7871566140158033
5913850 0.5187864254816136 -0.7931746798525636
5933550 0.5144699510811337 -0.7987086658362643
5953350 0.5099248221869902 -0.8042708870941542
5973150 0.5059645672350579 -0.809263829758351
5992950 0.5011132585842469 -0.8145288103648815
6012650 0.4968723456974739 -0.818630555752507
6032450 0.49173268280046806 -0.8233801201220261
6052250 0.48768271795952745 -0.8281054918867211
6072050 0.4830610423439317 -0.8318643374946249
6091825 0.4783992215201362 -0.835723835397834
6111525 0.47427878584490346 -0.8396246244301755
6131325 0.46980044303290014 -0.8431688178421702
6151125 0.4647136231438466 -0.8468495831676492
6170925 0.46000742326860433 -0.850202551070459
6190625 0.4550879889720247 -0.8536429976451692
6210425 0.4508870124203851 -0.8567993169398028
6230225 0.44592038997087635 -0.8595556115968761
6250025 0.44158520075118746 -0.8634636945283038
6269725 0.4363206667944318 -0.8655638124125896
6289525 0.4322438090297303 -0.8688633249709193
6309325 0.4272357608409187 -0.8715021273198481
6329125 0.42232607391163896 -0.8737706490551063
6348825 0.41741214292504475 -0.8762403559684225
6368625 0.41172354609896017 -0.879734358152076
6388425 0.4071213840894937 -0.8825826526509349
6408225 0.40265138665013867 -0.884310340173213
6427925 0.3972622439919197 -0.8859488161676327
6447725 0.3924241693968031 -0.8881547611667793
6467525 0.38768022552952947 -0.8903449055049517
6487325 0.3838832886627232 -0.8908194064641751
6507025 0.3780346026828644 -0.8940192447172814
6526825 0.3737894453055625 -0.8956537106726221
6546625 0.36861540412861216 -0.897370808540026
6566425 0.364378505943835 -0.8991394531675843
6586125 0.35970880616796747 -0.9009882499696442
6605925 0.35472670328664224 -0.9023210309605666
6625725 0.34998787846776286 -0.9047471483822206
6645525 0.3453699940862876 -0.9058148770231764
6665225 0.34071681649703445 -0.9078518421264573
6685025 0.3356117160074443 -0.9088277179677909
6704825 0.33106438378111164 -0.9101432886259374
6724625 0.32587993515238584 -0.9118491075950322
6744325 0.3209746106528472 -0.9126666889151294
6764125 0.31616564944450976 -0.9140770240648393
6783925 0.3108414048981946 -0.9154307585052673
6803725 0.30593486657176955 -0.9164758618930449
6823425 0.3010512527238123 -0.9172677789723559
6843225 0.2949757297194956 -0.9177458201033978
6863025 0.2899939917244322 -0.9194703018865079
6882825 0.28503094244566224 -0.9196378474875707
6902525 0.2798810614833211 -0.9200276967864635
6922325 0.27409075783950443 -0.9208263782689006
6942125 0.2689204635819541 -0.9206952174035307
6961925 0.26351039510266616 -0.9210963102114168
6981625 0.2577418943983795 -0.9206586743320198
7001425 0.2518121833273908 -0.9206745732787254
7021225 0.24660772273795134 -0.9201549077483507
7041025 0.24124679778382493 -0.9190389077715538
7060725 0.23487235920856483 -0.9177911624416053
7080525 0.22949881759852542 -0.9164676281137524
7100325 0.22422712828899544 -0.9146666147229753
7120125 0.21830775181673248 -0.9124407301043328
7139825 0.2133405642782338 -0.910363174104734
7159625 0.20805774216813416 -0.9069179554085666
7179425 0.20368179370516004 -0.903039031749092
7199225 0.19953585617019653 -0.8989675466809279
7218925 0.19593315619650506 -0.8942775962383513
7238725 0.19324695085293228 -0.889632535021514
7258525 0.19163776674823885 -0.884044162035603
7278325 0.19187425615440484 -0.8791847584054597
7298025 0.1927719397170761 -0.874114714128308
7317825 0.1950360440128636 -0.8707620068841073
7337625 0.1979701104646006 -0.8680421466078166
7357425 0.20197531462945753 -0.8672181294861181
7377125 0.20521405416628358 -0.8671531388857778
7396925 0.20876085604444403 -0.8687562604048165
7416725 0.21127035330393684 -0.8717597146235532
7436525 0.21321474139231592 -0.8747527681532992
7456225 0.213959260417429 -0.8792401218941558
7476025 0.21368465381575347 -0.8833289566819834
7495825 0.21271307726556984 -0.8874504275190547
7515625 0.2114825648136622 -0.892134794911267
7535325 0.2097241901891226 -0.8955590531447855
7555125 0.20710347891239075 -0.8999708246615596
7574925 0.20428704612797918 -0.9033750482421595
7594725 0.20111694585309878 -0.9070871563908941
7614425 0.19794976934531494 -0.9103574501290848
7634225 0.1942177670902384 -0.913224456941
7654025 0.1908117884764677 -0.9163771933187371
7673825 0.18691740582096553 -0.9193677265480268
7693525 0.18313861046321722 -0.9219458711453754
7713325 0.1793032760661719 -0.9240986515737626
7733125 0.17566916490662282 -0.926248328436658
7752925 0.17141557942439714 -0.9283126612726482
7772625 0.1674468518904037 -0.9303057904516526
7792425 0.16357088464668326 -0.9324439625992613
7812225 0.15917741811900685 -0.9342676061986185
7832025 0.15525993775021613 -0.9359653415329768
7851725 0.1516614128700976 -0.938147731307852
7871525 0.1471055791316862 -0.9394376832799932
7891325 0.14306828931668833 -0.9411952044979794
7911125 0.13874095194540095 -0.942853230320316
7930825 0.1345903178059594 -0.9442940763273543
7950625 0.13068645773464682 -0.9456220942609541
7970425 0.12614434266315966 -0.9475125637046441
7990225 0.12144146659330626 -0.948620931920695
8009925 0.11722732682007302 -0.9502133392528461
8029725 0.11264243242890436 -0.9512552582084076
8049525 0.10869507960077282 -0.9522225565643349
8069325 0.10436825381990811 -0.9539619229706159
8089100 0.09939002106944393 -0.9543159342725716
8108800 0.09521293591601901 -0.955767424869209
8128600 0.09058293277106581 -0.9568326325304835
8148400 0.08639569644113075 -0.957394193396636
8168200 0.08196826620452415 -0.9584823782733225
8187900 0.07748939688513538 -0.9591099266969507
8207700 0.07276905206637234 -0.9605360464135642
8227500 0.06845055227116935 -0.9611195663242078
8247300 0.06328527715459019 -0.96137113859392
8267000 0.05923200916675059 -0.962921026233166
8286800 0.05455413662772288 -0.9632478119273697
8306600 0.049924011634279106 -0.9638540424049175
8326400 0.04519603087557712 -0.9644871761021669
8346100 0.040528780849483435 -0.9647976392075693
8365900 0.0359514493383996 -0.9651365374251389
8385700 0.03140449215758163 -0.9658107403751922
8405500 0.02661200225644339 -0.966344979630287
8425200 0.021958506464076905 -0.9664686316463623
8445000 0.017523255913357766 -0.9665240235417748
8464800 0.012710075933541383 -0.967406810343962
