# Hz S RI R 50
100000 0.9985508976883919 -0.024164638489156162
119700 0.9974605264801562 -0.028501582843328172
139500 0.9971431379864042 -0.03339548828139932
159300 0.9971070200585543 -0.0379467643296219
179100 0.996775705707607 -0.04248849301484133
198800 0.9965728290149554 -0.047191300010322304
218600 0.9963182242866052 -0.05191212005316617
238400 0.9962496547586891 -0.05653209185797883
258200 0.9954554605313912 -0.06116024934289453
277900 0.9953268441244437 -0.06558646578286455
297700 0.994957066558685 -0.070495236899877
317500 0.9948728796609235 -0.0752467922110485
337300 0.9942602623082317 -0.07999049058230509
357000 0.9939963022121823 -0.08469452490986361
376800 0.9936226964445348 -0.08931114938134674
396600 0.9931588685117403 -0.09407083390278283
416400 0.9924663835169237 -0.09866089946335253
436100 0.9920806299367784 -0.10336238599667863
455900 0.9914465767060019 -0.10795642074394635
475700 0.9908958368923773 -0.11287722146023005
495500 0.9905061252224294 -0.11742824537089135
515200 0.9896582897536226 -0.12229956957167155
535000 0.9892110622725399 -0.12670906339434393
554800 0.9888947555832686 -0.13168565039403246
574600 0.988170898083787 -0.1366820236267554
594300 0.9874048312414238 -0.14114801144293396
614100 0.9865581145167566 -0.14591385179270763
633900 0.9862094831624897 -0.1505511767463594
653700 0.9853548986631576 -0.15529334049461394
673400 0.9845574073558554 -0.15996780533894528
693200 0.9837901963807786 -0.1646787343842438
713000 0.9829512837448205 -0.16941410653356004
732800 0.9821213087169878 -0.17414009269335312
752500 0.9814568480037212 -0.1788573447896373
772300 0.9803577240453105 -0.1835007139624671
792100 0.9795208548162532 -0.18838200498580204
811900 0.9785595960564405 -0.1933239151550356
831600 0.9775182956110469 -0.1977721089468871
851400 0.9768853532480277 -0.20265772958346998
871200 0.9751583139152229 -0.20733128335156353
891000 0.9741256107725242 -0.21244430650925
910700 0.9735166339487945 -0.2171436610378362
930500 0.9723352212623408 -0.22202339705869337
950300 0.9712075777222523 -0.22675191778404444
970100 0.9699838235287277 -0.23128657148145504
989800 0.9689295645808481 -0.2361388253269295
1009600 0.9677304124927777 -0.24107984567734686
1029400 0.9661445874238668 -0.2460884302927105
1049200 0.9650978773065206 -0.25082148597440496
1068900 0.96397938289331 -0.25583810468041823
1088700 0.9625586293675701 -0.26049905572115534
1108500 0.9613427716643937 -0.2653953234994847
1128300 0.959683036474302 -0.270176485957363
1148000 0.9581762639455016 -0.27524766535466727
1167800 0.9567230834266807 -0.2801690578759091
1187600 0.9551037419715064 -0.28490466136025894
1207400 0.9538238258509678 -0.28987476687817154
1227100 0.9521315017167411 -0.29477581621447696
1246900 0.9506415522158455 -0.29965735118929143
1266700 0.9490297145411262 -0.30444775545409286
1286500 0.947501987821123 -0.30966287557455413
1306200 0.9458942111647916 -0.31462901937662535
1326000 0.9444011969091932 -0.31938441892209113
1345800 0.9423819874692166 -0.32490391298512383
1365600 0.9403988374861817 -0.329726958762253
1385300 0.9386268741582721 -0.3348300616958993
1405100 0.9369808367038291 -0.33960826734348964
1424900 0.9349009509053957 -0.3446771449049775
1444700 0.9330820449705999 -0.349919088626303
1464400 0.9309913237727068 -0.35497397472283204
1484200 0.9292843267327627 -0.3601971173838465
1504000 0.9270470155827819 -0.36534613902416485
1523800 0.9249211621611159 -0.3704384981347983
1543500 0.9228506521855515 -0.375594939628778
1563300 0.9206631057048118 -0.38086174897736813
1583100 0.9187269701497839 -0.386161191712326
1602900 0.9157069735559591 -0.3911922286819771
1622600 0.9136148647938677 -0.3964622344721619
1642400 0.9113954691587746 -0.401622754288285
1662200 0.9091696946658759 -0.40693122201680654
1682000 0.9066157407384186 -0.41214074550352947
1701700 0.9043522202829849 -0.4179585963373167
1721500 0.9012336569364281 -0.423025607809965
1741300 0.8990893521303195 -0.4285287824292638
1761100 0.8961100399800211 -0.4340062260395202
1780800 0.8935044404565907 -0.4391839395213257
1800600 0.8909977225961726 -0.4451562263797439
1820400 0.8877245311201607 -0.4505015864328072
1840200 0.8847210342412042 -0.45592220648135734
1859900 0.8817284620410312 -0.46189321432405966
1879700 0.8786344146295384 -0.46756824954927284
1899500 0.8756433985883995 -0.47335348607965483
1919300 0.872470507621205 -0.4788394302294964
1939000 0.8690344600216062 -0.48466447087733094
1958800 0.865730393225517 -0.4905620772789906
1978600 0.8624889319112566 -0.4966186205831996
1998400 0.858744175403177 -0.5023117724831787
2018100 0.8551598531801324 -0.5081041213122688
2037900 0.8512650782464244 -0.5141014448605289
2057700 0.8473723788155093 -0.5203346241343464
2077500 0.843498930220413 -0.5264905657743212
2097275 0.8397045518135918 -0.5329384471499145
2116975 0.8351424871409092 -0.539037682314917
2136775 0.8307857846423223 -0.5454186989548823
2156575 0.8264826133977231 -0.55153510311603
2176375 0.8218699294610142 -0.5582177342201129
2196075 0.817191265223951 -0.5652052265707034
2215875 0.8124457867407204 -0.5714219964873778
2235675 0.8073132408553443 -0.5783097933805915
2255475 0.8022022256758372 -0.5850667008622469
2275175 0.7967627453491944 -0.5919951010065873
2294975 0.7910435764963237 -0.599108708040297
2314775 0.7849900374148765 -0.6063037296459064
2334575 0.7796626577529645 -0.6135246879808712
2354275 0.7730383639559416 -0.6214192335737188
2374075 0.7663076025044491 -0.628271464400228
2393875 0.7597604507685445 -0.6363367136999458
2413675 0.7527918275414662 -0.6438037225402229
2433375 0.7452746327336336 -0.6520234755421542
2453175 0.7376359500175792 -0.6601332445305724
2472975 0.7294903647115777 -0.668183699795694
2492775 0.7210035041529935 -0.6768133271632621
2512475 0.7121587125827484 -0.6855656497054015
2532275 0.7025076670149535 -0.6938757249815924
2552075 0.6926511534494163 -0.7030974016866351
2571875 0.6820119654351128 -0.7121924653929769
2591575 0.6707724469484886 -0.7218857321487134
2611375 0.6588855958315466 -0.7310207463395021
2631175 0.6464175568917971 -0.7408238527355125
2650975 0.6327036038368128 -0.7507418296117976
2670675 0.6183740471430914 -0.7615811796116371
2690475 0.6021756254537604 -0.7718079539226526
2710275 0.585671664121045 -0.7823497728006584
2730075 0.5667877790413267 -0.7933390384193615
2749775 0.5473129228617036 -0.8038618323851792
2769575 0.5256135750172205 -0.8153471604110698
2789375 0.5014365741823621 -0.8262287917810199
2809175 0.4752995365654201 -0.8370016547193221
2828875 0.44631433758381284 -0.84756729394287
2848675 0.41367116700828416 -0.8573661768433182
2868475 0.37754713256342987 -0.8661503209481217
2888275 0.33714790440179226 -0.8733488048051037
2907975 0.29162554297556786 -0.8776941103359012
2927775 0.2399156663439476 -0.878596177508525
2947575 0.1818015138898382 -0.8736924060582808
2967375 0.11723097007567783 -0.8612225952118123
2987075 0.04640855980642753 -0.8364587411857001
3006875 -0.0293539596744547 -0.7955703011363142
3026675 -0.10532521148717047 -0.7334863568844442
3046475 -0.17386223180164406 -0.6456800236428539
3066175 -0.22153417856022523 -0.5311093392909063
3085975 -0.2333881695468738 -0.3970539563297614
3105775 -0.19708522587591 -0.26267670277159305
3125575 -0.1159457843507107 -0.15369882988219546
3145275 -0.010043653442656517 -0.0902213997374756
3165075 0.09491921998940235 -0.07574058367164213
3184875 0.1782957471337566 -0.09844839356046031
3204675 0.2306692799630764 -0.14198749698417484
3224375 0.25080603825385517 -0.19098460892402305
3244175 0.24219118539907988 -0.23478412488763162
3263975 0.2094932173523855 -0.265376152054876
3283775 0.15876859573498076 -0.27386171967736006
3303475 0.09680245522976133 -0.2571159809849205
3323275 0.034238053167693974 -0.2061888780749371
3343075 -0.0159718708010044 -0.12136467746191656
3362875 -0.036723985599339995 -0.007345119821904643
3382575 -0.01439403136708887 0.12179213164032854
3402375 0.05619895153768812 0.24319485875692737
3422175 0.1663615526716922 0.33532690198408244
3441975 0.2957089921523024 0.38564970833459983
3461675 0.4237904670233303 0.3958436031314267
3481475 0.5385838771536219 0.37516157913996884
3501275 0.633462781414416 0.3338953817331475
3521075 0.7087868167240088 0.28271311194734927
3540775 0.7659614734327126 0.22763394263493264
3560575 0.8090910889685932 0.1721778407993073
3580375 0.8411809866277777 0.11906764527988314
3600175 0.863936677593374 0.06915090863301282
3619875 0.8798463366433577 0.0236753139169729
3639675 0.8909578992933045 -0.018732476296283686
3659475 0.8980011201664867 -0.05716017230999517
3679275 0.9015975669854082 -0.09185985292641716
3698975 0.9034479036254958 -0.12343008199912989
3718775 0.9037384330417445 -0.15224379459402282
3738575 0.9033330855661642 -0.17873900408486745
3758375 0.9012839119749517 -0.20260792414565398
3778075 0.8994183694407255 -0.2249618008925977
3797875 0.897170399158553 -0.24533363223015983
3817675 0.8949820094762835 -0.26462085184768475
3837475 0.8918525200015595 -0.28287639024670036
3857175 0.8894943803042897 -0.30025674647433837
3876975 0.8862188562906173 -0.3165582351169834
3896775 0.8830167965504053 -0.33254536337132073
3916575 0.879813296763266 -0.3474911287435912
3936275 0.8763078321141133 -0.36187371084880404
3956075 0.872180231293288 -0.37585933689081935
3975875 0.8681227845362202 -0.3890587969057561
3995675 0.8641248900923314 -0.4018499204933648
4015375 0.860083133110357 -0.41412355154386293
4035175 0.8556727613360487 -0.42608213953133856
4054975 0.8515001114786195 -0.4373555353195791
4074775 0.846963037613703 -0.4484678988580862
4094550 0.8426191070301227 -0.45935367837734875
4114250 0.8383520197776692 -0.469127313327743
4134050 0.8333495798228128 -0.47928699542338227
4153850 0.8289839945921583 -0.48922641615549867
4173650 0.8241892169216634 -0.4986252309572567
4193350 0.8191698357924859 -0.507736716197303
4213150 0.8141652132209467 -0.5168803571340977
4232950 0.809211692829253 -0.5256843621915404
4252750 0.8042902803737125 -0.5340565447734186
4272450 0.7991264267069207 -0.5424846083358063
4292250 0.7940541072522476 -0.5505250515267873
4312050 0.788626874915749 -0.5588045969439509
4331850 0.7833508126671102 -0.5663119424224512
4351550 0.7783118937480727 -0.5737010749644438
4371350 0.7730877930763139 -0.5810880457010951
4391150 0.7671849373065849 -0.588062422904507
4410950 0.7616579337490927 -0.5951517415108912
4430650 0.7560632958920994 -0.602023500058524
4450450 0.7509803659020747 -0.6089500071434593
4470250 0.744918402077769 -0.6155291540965306
4490050 0.7394321901786977 -0.62210095842073
4509750 0.7335569753409337 -0.6283818683768092
4529550 0.7278047430148956 -0.6345356819080564
4549350 0.7218408782023378 -0.6405314147363397
4569150 0.7159357729910972 -0.6463115306907364
4588850 0.7096159875818362 -0.6524982997175381
4608650 0.7038053405986696 -0.6583261363179386
4628450 0.6974182272663039 -0.6641137399677379
4648250 0.6913592227696634 -0.6695583031397577
4667950 0.6846011285108853 -0.6747825199714677
4687750 0.6781652403017728 -0.6802187624624778
4707550 0.671722687311632 -0.686071112093074
4727350 0.6647448339162296 -0.6910993791003507
4747050 0.657620344462877 -0.6958038086924885
4766850 0.6507532711719864 -0.7009082898917279
4786650 0.6436041282253179 -0.70561406923672
4806450 0.6359728676154195 -0.710169148936345
4826150 0.6289139733484718 -0.7147935227963107
4845950 0.6207480709191863 -0.7194232677766977
4865750 0.6129386665348419 -0.7237986690389601
4885550 0.6053061262429448 -0.7277447198324593
4905250 0.5968959548294535 -0.7321691318662215
4925050 0.5880970029748611 -0.7357510832151156
4944850 0.5796892983045117 -0.7396339883265894
4964650 0.5701689727215807 -0.7438285795638042
4984350 0.5609438472316891 -0.7468126671135759
5004150 0.551614481648317 -0.750372635485227
5023950 0.540910932084158 -0.7534402516126135
5043750 0.5308432502289073 -0.7559728425338573
5063450 0.5200400133156748 -0.7584033186059875
5083250 0.5081789361106468 -0.76015375221825
5103050 0.496297844097898 -0.7615438173598205
5122850 0.48383491164054815 -0.762709384931328
5142550 0.47079220197997557 -0.7629630664106565
5162350 0.45730807450134375 -0.7625228704113679
5182150 0.44324634971939453 -0.7609419471756079
5201950 0.4289303277787097 -0.7590502882354979
5221650 0.413344299442651 -0.7556152165456244
5241450 0.39772433315035555 -0.750935788445928
5261250 0.381302970580361 -0.7442174742644967
5281050 0.3644929577159299 -0.7361510617752154
5300750 0.34737934596173675 -0.7255821741027104
5320550 0.3308218943507315 -0.7125980179204872
5340350 0.3146338033617695 -0.696178067658037
5360150 0.2990952745642452 -0.677105860288679
5379850 0.285741128909448 -0.6544515624988196
5399650 0.27527394231732194 -0.6283505193457831
5419450 0.26860709883633077 -0.5986890326414264
5439250 0.2669059843888014 -0.5670026082513807
5458950 0.27105184462199283 -0.5334913006949229
5478750 0.2820550085529914 -0.4994783616152214
5498550 0.2999451535808815 -0.4676760902867246
5518350 0.32496106416851506 -0.4396138606627547
5538050 0.3547940624740371 -0.4173694820615842
5557850 0.38901372320359034 -0.4016376755990727
5577650 0.4245695202132483 -0.39359644200965815
5597450 0.45967534989129444 -0.3927090985121348
5617150 0.49287595939961903 -0.39818569263407727
5636950 0.5229620580586305 -0.40877400107565454
5656750 0.5487837799916717 -0.4234552858053743
5676550 0.5705724856108473 -0.4408694745391087
5696250 0.5886021566952288 -0.45955352595191495
5716050 0.6031253204390581 -0.47905769979416507
5735850 0.6140209970651884 -0.4990393473732442
5755650 0.6219808892594761 -0.5184122137270863
5775350 0.627252263152761 -0.5369253805083523
5795150 0.631358411863674 -0.5552677248742389
5814950 0.6330421788078445 -0.5725830018600787
5834750 0.6333413365364788 -0.5887404724824515
5854450 0.632741783158885 -0.6041296443083726
5874250 0.631278312524926 -0.6180354749909628
5894050 0.6289912754075239 -0.6316577623249274
5913850 0.6259981909947948 -0.6442548232713909
5933550 0.6227981395575822 -0.6561686652352046
5953350 0.6187975999631116 -0.6673692037036264
5973150 0.6150995351490908 -0.6779727169107792
5992950 0.6103830888242858 -0.6881602324807012
6012650 0.6059102176300787 -0.6971077882250144
6032450 0.6006379746812086 -0.7064129775048342
6052250 0.5960924249772852 -0.7150982953176379
6072050 0.5910664104426663 -0.7230409151492674
6091825 0.5856210262020235 -0.7309393849238666
6111525 0.5806938319530969 -0.7384822564419115
6131325 0.575552420114747 -0.7454207233818306
6151125 0.569859614234698 -0.7522104766890635
6170925 0.5641511426895192 -0.7586757588230438
6190625 0.5586386440105847 -0.7647859370494473
6210425 0.5534939456196516 -0.7706585268037848
6230225 0.5475404759774312 -0.7763615112673296
6250025 0.5420950782378389 -0.7825784567840436
6269725 0.5362138530621716 -0.7871830374038554
6289525 0.5311677422548287 -0.7929292235582132
6309325 0.5249677253464096 -0.7976922786517379
6329125 0.5192904320055034 -0.802234185196434
6348825 0.5132209242287682 -0.8064239414932179
6368625 0.5068601493189 -0.8121264737762824
6388425 0.5009842491845532 -0.8165535646815322
6408225 0.49565864381233354 -0.8201912038224605
6427925 0.4889943798062963 -0.8236704936575173
6447725 0.4834662926539912 -0.8274387977527896
6467525 0.47761970477366816 -0.830958885910283
6487325 0.47076597761815064 -0.8346996325548794
6507025 0.4659427173685676 -0.8376014421463371
6526825 0.46037571877737976 -0.8404112459582329
6546625 0.4543972600410471 -0.8436003358707928
6566425 0.44919234830488575 -0.84646675487821
6586125 0.4435873121220786 -0.8494240530231296
6605925 0.4375835796793457 -0.8520262980272901
6625725 0.4318875729237685 -0.8552764947378455
6645525 0.42618642125381123 -0.8576942325043729
6665225 0.4205683696573111 -0.860705710123895
6685025 0.4144578777060059 -0.8626668734357557
6704825 0.40883725696185924 -0.8649225518900664
6724625 0.40264965368959976 -0.8676292409417568
6744325 0.39647918731914206 -0.8694843266410628
6764125 0.3908393210094394 -0.8717170640174905
6783925 0.3842889899916706 -0.873625951529614
6803725 0.37823167340490244 -0.8752935521599834
6823425 0.3720084779205158 -0.876593901126253
6843225 0.36489906992932586 -0.8781796004778336
6863025 0.35852209055088263 -0.8801460331536478
6882825 0.352282109538895 -0.880807110581997
6902525 0.34591476556127637 -0.8818844611756402
6922325 0.33882279321589764 -0.8827528910366322
6942125 0.33219725372533543 -0.8830239181511451
6961925 0.32523443065766616 -0.8830272913785274
6981625 0.3181023619948196 -0.8828514388261399
7001425 0.31073817142495935 -0.8824942953795326
7021225 0.30413747711442135 -0.881730603117733
7041025 0.2972525744522029 -0.8800047483577612
7060725 0.2896708279202019 -0.8781439684563773
7080525 0.2830522471271496 -0.8761066458815051
7100325 0.2763700655438042 -0.8731977191268616
7120125 0.26965384139522 -0.8694437778046935
7139825 0.26373505486775295 -0.8655941824388147
7159625 0.2580860473286789 -0.8603290455845137
7179425 0.25336502408786044 -0.8548713213453668
7199225 0.2495045214207987 -0.8482953616936277
7218925 0.24669516960991064 -0.8414981125435289
7238725 0.2450181126320249 -0.8347316217427434
7258525 0.24523444078162737 -0.827864252274967
7278325 0.2473901558549815 -0.8211575046356531
7298025 0.2505837407483847 -0.8156850182152463
7317825 0.2550730725855375 -0.8116085530321047
7337625 0.2604477118500499 -0.8091800143185174
7357425 0.26679022613340636 -0.8088356122758229
7377125 0.272185075005939 -0.8097418429208301
7396925 0.2771310533364672 -0.8124872139821308
7416725 0.2813959494284924 -0.8168615062167078
7436525 0.284472815344263 -0.8209374787705463
7456225 0.286351736690564 -0.8269136975015373
7476025 0.28695550928047087 -0.8325483732479794
7495825 0.2870042769709271 -0.8378698874419852
7515625 0.2862633756500236 -0.8438933644259478
7535325 0.28505578742105836 -0.8489827372716681
7555125 0.2828266808659857 -0.8547655009071784
7574925 0.28015309850649045 -0.8596293035204491
7594725 0.2774603579755314 -0.8646020813486389
7614425 0.2744623524598192 -0.8691235931888809
7634225 0.27068506018366995 -0.8731753822251295
7654025 0.2675898888405805 -0.8773698815765685
7673825 0.2636391423270964 -0.8814173957534729
7693525 0.259860342740928 -0.8852036592394155
7713325 0.2560392190160223 -0.8885636580897103
7733125 0.2520490281496375 -0.8916903887677055
7752925 0.24795439342372855 -0.8946471318403528
7772625 0.24385596303940926 -0.8977684965326704
7792425 0.24004822747751225 -0.9006851855339761
7812225 0.23561293301356814 -0.9035606074367015
7832025 0.2312861900225168 -0.9061361510249177
7851725 0.2275483280880701 -0.9094062574806614
7871525 0.22262205429096146 -0.9117553421624021
7891325 0.21856430511899128 -0.9144452116551387
7911125 0.21415425286766304 -0.917171571218912
7930825 0.20973215478225762 -0.9195389667133668
7950625 0.2053569404515913 -0.9216011828599349
7970425 0.20067545048343388 -0.9244414955694434
7990225 0.19556326633820711 -0.9263811220388426
8009925 0.19119215817311408 -0.9286939213317884
8029725 0.18609370024505534 -0.9307916805969563
8049525 0.18162292022132268 -0.932158160653785
8069325 0.17693091388432833 -0.9348648234489847
8089100 0.17189070808976206 -0.936257956782411
8108800 0.1672217663287729 -0.9382458595865534
8128600 0.16194272594143067 -0.940102960904794
8148400 0.15752414767540623 -0.9412171087477761
8168200 0.15256325190334155 -0.9429573608477956
8187900 0.14801591638995684 -0.9444010938294474
8207700 0.14265104646716456 -0.9462933556388484
8227500 0.13781975594741105 -0.9474663676400888
8247300 0.1322549602984974 -0.9487871607058457
8267000 0.1277767533077188 -0.9504224045771683
8286800 0.12261065458920169 -0.9513956162284816
8306600 0.11768871380738823 -0.9528270113421551
8326400 0.11244494173032307 -0.9539319536625606
8346100 0.10736038865247591 -0.9548701925012051
8365900 0.10232543527102968 -0.9556103351082065
8385700 0.09724941613732452 -0.9568016574705392
8405500 0.09204392405098556 -0.9579372416850762
8425200 0.08675352766167471 -0.9584965100960731
8445000 0.08199648612426291 -0.9588041825192961
8464800 0.0767913814894619 -0.9603000105261329
